#  HZ   S   DB   R     50.0
! Rohde & Schwarz ZVL
!
!
!
 1.000000000000000E7    -2.452142646401555  -4.892114763739135E1   1.025073111555683E1   2.225957460953056E1  -3.403146129933196E1  -1.310620406326494E2  -1.100174683982179E1   1.586999804176085E2
 1.495000000000000E7    -4.933507143499370  -6.205172513636440E1   1.073792506585668E1   9.816955036465922  -3.263519465549402E1  -1.488083190688573E2  -1.217141151831900E1   1.611854193282580E2
 1.990000000000000E7    -6.699426549312705  -6.895982397917759E1   1.092431938368264E1  -2.870070744196627  -3.211566982704109E1  -1.651641726879488E2  -1.274580548174116E1   1.605289977308788E2
 2.485000000000000E7    -8.031176013644995  -7.507531787974082E1   1.096999923950955E1  -6.902916319088122  -3.200091595800039E1  -1.732639099985110E2  -1.298904291131724E1   1.638766894349188E2
 2.980000000000000E7    -9.266336696089104  -7.861343136018688E1   1.094660318421965E1  -1.133630472550177E1  -3.203220272181174E1  -1.795579312345479E2  -1.278154487309769E1   1.586341395614576E2
 3.475000000000000E7    -1.006472056701209E1  -8.320222567555959E1   1.090908772098682E1  -1.733290218482794E1  -3.192730767475754E1   1.740191148954383E2  -1.284327371151846E1   1.589925025362421E2
 3.970000000000000E7    -1.049090173445447E1  -8.967085841730423E1   1.093049517773130E1  -2.303400276499660E1  -3.197143176885762E1   1.691468894694708E2  -1.306692391262189E1   1.579704694303021E2
 4.465000000000000E7    -1.118303186598545E1  -9.202347666105231E1   1.083590630811384E1  -2.665477952335653E1  -3.209094557501622E1   1.625503552049831E2  -1.298232958737720E1   1.574390670626446E2
 4.960000000000000E7    -1.148956935617623E1  -9.348058356604902E1   1.085151570143635E1  -2.947575624634256E1  -3.207018645951662E1   1.586814475248853E2  -1.286367440737557E1   1.561688247403650E2
 5.455000000000000E7    -1.203895774662234E1  -9.788810261258240E1   1.086393984795026E1  -3.394326497671898E1  -3.200024710874788E1   1.547542604455108E2  -1.303582183330603E1   1.543197445039051E2
 5.950000000000000E7    -1.199267633406507E1  -1.030468096001856E2   1.079568722133487E1  -3.704661458508586E1  -3.204422555263533E1   1.511969923941286E2  -1.296831029213722E1   1.527969224097539E2
 6.445000000000000E7    -1.211544627761231E1  -1.057293371288728E2   1.074202796053735E1  -3.974338166518337E1  -3.209838729522925E1   1.477516593336345E2  -1.295863939056317E1   1.497454696969759E2
 6.940000000000000E7    -1.264702760816888E1  -1.136265115782357E2   1.064901055260360E1  -4.508296413546004E1  -3.214519933712785E1   1.443985443484032E2  -1.309515110551494E1   1.518388176499290E2
 7.435000000000000E7    -1.256289023415063E1  -1.166128639618747E2   1.068330412620776E1  -4.885974081006984E1  -3.199025516010555E1   1.401405679011878E2  -1.291909252353371E1   1.521258459770219E2
 7.930000000000000E7    -1.255300008885140E1  -1.187788642931317E2   1.065098094669425E1  -5.264051277521772E1  -3.201757538241568E1   1.381678031320691E2  -1.271339390972836E1   1.472512516532849E2
 8.425000000000000E7    -1.266259996524637E1  -1.236458283105194E2   1.062209955871683E1  -5.599171047166345E1  -3.214004947977580E1   1.331525234195135E2  -1.278119517489355E1   1.512395659712433E2
 8.920000000000000E7    -1.282846199035679E1  -1.279001867866695E2   1.057130556574172E1  -5.816074078627288E1  -3.231784664407041E1   1.285646597891770E2  -1.304265832564292E1   1.485509476622859E2
 9.415000000000000E7    -1.300409781721094E1  -1.316129557186351E2   1.050385164126379E1  -6.314271293606942E1  -3.228816878308277E1   1.277478807909820E2  -1.271959411439681E1   1.467332559773539E2
 9.910000000000000E7    -1.301614715513440E1  -1.367702117775286E2   1.054567522232336E1  -6.631481764145198E1  -3.218515347609464E1   1.213628966748192E2  -1.282012717997553E1   1.462644606643439E2
 1.040500000000000E8    -1.348770215623740E1  -1.433927994108932E2   1.052351812409899E1  -6.926533817664108E1  -3.226088722223848E1   1.173981413377030E2  -1.281215690417823E1   1.435488248584707E2
 1.090000000000000E8    -1.348458662696961E1  -1.485114965056932E2   1.049264794000611E1  -7.343966962931779E1  -3.232461096989489E1   1.167952789149462E2  -1.319745230127411E1   1.426500608626146E2
 1.139500000000000E8    -1.340549753437391E1  -1.501115054932265E2   1.047558361887929E1  -7.668101238971869E1  -3.234547317100004E1   1.133849152162084E2  -1.281423865296190E1   1.414936377099290E2
 1.189000000000000E8    -1.378257213237744E1  -1.529775320210704E2   1.044413606449655E1  -8.015482583762176E1  -3.222911062776687E1   1.102612359646091E2  -1.311502973633669E1   1.382938021042406E2
 1.238500000000000E8    -1.407292545258477E1  -1.532824379485277E2   1.036487180504684E1  -8.255871484754377E1  -3.242272023694876E1   1.060877104846224E2  -1.311272823291291E1   1.385987339894198E2
 1.288000000000000E8    -1.401388158620243E1  -1.636800620639309E2   1.039312508216674E1  -8.685236655827042E1  -3.229229461287220E1   1.037116595843771E2  -1.301497148068666E1   1.385368642350020E2
 1.337500000000000E8    -1.411278560108496E1  -1.695512180838742E2   1.035641114936816E1  -9.066485044152633E1  -3.231636621036198E1   9.983937320228631E1  -1.338072208872656E1   1.357325080683596E2
 1.387000000000000E8    -1.416736926001779E1  -1.721943137581837E2   1.035958563563351E1  -9.398481109169740E1  -3.225653041404371E1   9.813303033602961E1  -1.313357445081293E1   1.366702562405363E2
 1.436500000000000E8    -1.498450343468688E1  -1.780288251387521E2   1.032323101557999E1  -9.778799100526085E1  -3.220954702320735E1   9.221039054067646E1  -1.322436105655509E1   1.323610987306068E2
 1.486000000000000E8    -1.432402788892764E1   1.757050401459849E2   1.033336677726858E1  -1.003968528811429E2  -3.231309119100146E1   9.099065916365626E1  -1.296868877114584E1   1.295393776253309E2
 1.535500000000000E8    -1.450420883238339E1   1.734227941855721E2   1.030954920058190E1  -1.043558383512759E2  -3.227855639343893E1   8.814335492417435E1  -1.312089210575871E1   1.307125446812987E2
 1.585000000000000E8    -1.486865293650761E1   1.662967010968453E2   1.026415223103101E1  -1.076447371406545E2  -3.221594094491360E1   8.428805182779124E1  -1.302457154645789E1   1.289048104897410E2
 1.634500000000000E8    -1.476385622667258E1   1.659572837250344E2   1.028018272756634E1  -1.094274750159107E2  -3.237995260490999E1   8.251852804030007E1  -1.331422738363222E1   1.310195705160199E2
 1.684000000000000E8    -1.526738177718287E1   1.549800789096878E2   1.026073110679762E1  -1.122997087230028E2  -3.257262875215610E1   7.740588620817397E1  -1.282032691824584E1   1.253909659234469E2
 1.733500000000000E8    -1.557903703275728E1   1.485973484671783E2   1.021694425201519E1  -1.185304909224323E2  -3.230047331157998E1   7.533989804198933E1  -1.283752424217305E1   1.252657137091248E2
 1.783000000000000E8    -1.606458974921483E1   1.475122339704392E2   1.022525646571365E1  -1.200477078279559E2  -3.225933550007520E1   7.009236440274130E1  -1.276650032816432E1   1.250690891830566E2
 1.832500000000000E8    -1.615826620020051E1   1.376346822936454E2   1.021401836212689E1  -1.253340302664164E2  -3.237272344798053E1   6.966206568896472E1  -1.251143490976273E1   1.236909078165300E2
 1.882000000000000E8    -1.650169196353298E1   1.350908375806689E2   1.021743242480883E1  -1.270428378576709E2  -3.242422207149610E1   6.753620075026772E1  -1.274936617268165E1   1.252652537391157E2
 1.931500000000000E8    -1.697870536824890E1   1.303780567597582E2   1.022852178201397E1  -1.316988664856370E2  -3.245360803083148E1   6.037307824469306E1  -1.298602901222145E1   1.209413557271409E2
 1.981000000000000E8    -1.736808233016512E1   1.267980942875159E2   1.019086418437314E1  -1.358960471389647E2  -3.236018461141764E1   5.888221730153256E1  -1.268836376321150E1   1.212616333112866E2
 2.030500000000000E8    -1.754706170270279E1   1.207635993657542E2   1.024337632217785E1  -1.386393090034877E2  -3.239455279281906E1   5.401866731919441E1  -1.250380312096433E1   1.186602897167611E2
 2.080000000000000E8    -1.858549666167215E1   1.109849167043575E2   1.019875689513873E1  -1.425014161926038E2  -3.234854136962789E1   5.205255699227809E1  -1.240266784999125E1   1.174392201312045E2
 2.129500000000000E8    -1.830310059897969E1   1.044343314164263E2   1.019321828790859E1  -1.452366024297577E2  -3.231788677402033E1   4.784369089809260E1  -1.230621706789871E1   1.151750717744777E2
 2.179000000000000E8    -1.927710619913871E1   9.711081327944838E1   1.015089747908318E1  -1.509327151778319E2  -3.244191518820818E1   4.499895954415462E1  -1.228045229822045E1   1.157711220306009E2
 2.228500000000000E8    -1.993931263960875E1   9.057371077727804E1   1.016233344841974E1  -1.532198967814860E2  -3.248155958409789E1   4.161242076647785E1  -1.242805036946554E1   1.149568441892114E2
 2.278000000000000E8    -2.043543692090446E1   8.037926785174733E1   1.015267380788352E1  -1.566161773444337E2  -3.240505866589903E1   3.874765819720119E1  -1.247475032847027E1   1.108767464429502E2
 2.327500000000000E8    -2.083270977847880E1   7.798267644247960E1   1.011953061794142E1  -1.602737494969437E2  -3.231570431607432E1   3.548058119882739E1  -1.224364281362923E1   1.098307644262969E2
 2.377000000000000E8    -2.176824992808932E1   6.835664484295531E1   1.014534603413950E1  -1.624485360199516E2  -3.235619148708503E1   3.120409642920377E1  -1.217344780529941E1   1.108868098053205E2
 2.426500000000000E8    -2.221651206201586E1   5.118308351246758E1   1.009234936709469E1  -1.657886720375838E2  -3.239435502098181E1   2.729698896385895E1  -1.211462815032971E1   1.093243363960325E2
 2.476000000000000E8    -2.313878107929704E1   4.189833439918827E1   1.009634101378734E1  -1.711028164150391E2  -3.243670575554270E1   2.475841329455398E1  -1.189708154149629E1   1.099321508605026E2
 2.525500000000000E8    -2.252165004439194E1   2.398363016863120E1   1.006170291456586E1  -1.747893346303755E2  -3.258947056389422E1   1.975083047417157E1  -1.195091837146113E1   1.075380551916277E2
 2.575000000000000E8    -2.265080729607833E1   1.030307212582018E1   1.009025809092446E1  -1.778948618530818E2  -3.247409421873405E1   1.739989351780286E1  -1.175173626982904E1   1.055965315003703E2
 2.624500000000000E8    -2.250904929242087E1  -3.794335609919165   1.002916769562924E1   1.770104111493500E2  -3.259608725867819E1   1.303276480626456E1  -1.194922675517233E1   1.048295937397044E2
 2.674000000000000E8    -2.159499484373498E1  -1.368619249516169E1   9.978885171845299   1.751995740122410E2  -3.243754844286924E1   1.085203128221228E1  -1.166318709974237E1   1.012269200182869E2
 2.723500000000000E8    -2.122350163166104E1  -2.719416928059791E1   9.957638800296195   1.709267045293960E2  -3.258763211055007E1   7.475348447444543  -1.185780463304770E1   1.054081048458704E2
 2.773000000000000E8    -2.025462097538014E1  -3.709050103968269E1   9.940288649659319   1.649961993775127E2  -3.238098057287843E1   3.200172526408374  -1.157062010030311E1   1.012297772878471E2
 2.822500000000000E8    -2.075881042259903E1  -4.502461158650362E1   9.934298252498230   1.609043961847719E2  -3.242763849475327E1  -7.767092838481269E-1  -1.188813901310874E1   9.958621686968029E1
 2.872000000000000E8    -1.933888931881423E1  -5.777638074982054E1   9.903308084481816   1.571013804293250E2  -3.219513803220175E1  -4.562062970202200  -1.114452960562258E1   1.020343767983655E2
 2.921500000000000E8    -1.781217539554957E1  -6.795152946410863E1   9.817542904636280   1.541290398255653E2  -3.236969543752768E1  -5.411678932954395  -1.140148959360182E1   9.841297406803120E1
 2.971000000000000E8    -1.743016769081482E1  -7.771819492958171E1   9.833952800990989   1.509878902585813E2  -3.252487900195303E1  -1.178566853782004E1  -1.127262945682136E1   9.614752678427763E1
 3.020500000000000E8    -1.671317364496299E1  -8.592433241091788E1   9.789427257627139   1.453860770484920E2  -3.220958938319114E1  -1.445424443338718E1  -1.115079547154982E1   9.896599460363738E1
 3.070000000000000E8    -1.654778770141213E1  -8.985165853694186E1   9.731150477146400   1.433490780353293E2  -3.246453049454177E1  -2.032837838069420E1  -1.120686476929947E1   9.305453091627136E1
 3.119500000000000E8    -1.578004125618004E1  -9.668155012103858E1   9.678179751411527   1.394239899889960E2  -3.262704665491678E1  -2.401173066653171E1  -1.127634253693680E1   9.167754236680277E1
 3.169000000000000E8    -1.544711418238529E1  -1.030881713509230E2   9.603535116556373   1.332811595054607E2  -3.258801404676652E1  -2.725950108273355E1  -1.100720141133984E1   9.137461656217070E1
 3.218500000000000E8    -1.452243363109694E1  -1.109262840881323E2   9.592493225237531   1.300303172139624E2  -3.258649054720317E1  -3.200250188131539E1  -1.077014854339705E1   9.215157195560309E1
 3.268000000000000E8    -1.431127296208133E1  -1.137422434490647E2   9.531986509821481   1.279147238037537E2  -3.268757351679719E1  -3.482458872010759E1  -1.069163520388497E1   8.907911917212573E1
 3.317500000000000E8    -1.355105887022943E1  -1.190746300566309E2   9.510659784693065   1.234596534342891E2  -3.247807226249620E1  -3.892937783310133E1  -1.057004498793144E1   8.785419258825283E1
 3.367000000000000E8    -1.324398339470434E1  -1.256015402295865E2   9.409513293468979   1.193683139477997E2  -3.283760717545202E1  -4.444161297547581E1  -1.065129158283992E1   8.686271308288865E1
 3.416500000000000E8    -1.306579691767277E1  -1.302121516805526E2   9.426854894535696   1.135863192830924E2  -3.284073126399378E1  -4.629584529474597E1  -1.067197425010549E1   8.470420469519354E1
 3.466000000000000E8    -1.245211687517416E1  -1.328137571413780E2   9.276383284009159   1.107010752487532E2  -3.284417303455158E1  -4.972088891747010E1  -1.028779344494241E1   8.319871500389451E1
 3.515500000000000E8    -1.252746448449320E1  -1.385915159731069E2   9.260085171917947   1.056989932825736E2  -3.286383154678526E1  -5.487761441778826E1  -1.056512853616011E1   8.172553757424801E1
 3.565000000000000E8    -1.225131132341326E1  -1.480714744415964E2   9.217262669579837   1.004320478030992E2  -3.301476401975811E1  -6.017562364473276E1  -1.045890973232790E1   8.076741586873848E1
 3.614500000000000E8    -1.179895320446719E1  -1.508506327043901E2   9.094564590105586   9.826838774198700E1  -3.297271637392074E1  -6.600210821122093E1  -1.025298450540323E1   7.931740271560685E1
 3.664000000000000E8    -1.179673603715682E1  -1.553336744904285E2   9.050604548522882   9.331523728938400E1  -3.323337454580769E1  -6.656157138255016E1  -1.033865348449736E1   7.829951853683640E1
 3.713500000000000E8    -1.129327569500371E1  -1.614236611826288E2   8.971077583979580   8.961067790098629E1  -3.327812753237249E1  -7.226525454093219E1  -1.025990611475027E1   7.583519144772146E1
 3.763000000000000E8    -1.146091751601485E1  -1.639120894651192E2   8.921267158739624   8.459592877171967E1  -3.320008070631148E1  -7.547810468413071E1  -1.052430125842852E1   7.457777709807419E1
 3.812500000000000E8    -1.137329197683299E1  -1.701155061485311E2   8.844491485280761   8.016465300143754E1  -3.319161074942711E1  -7.861799738162554E1  -1.044476051056706E1   7.258803704933969E1
 3.862000000000000E8    -1.157323945008244E1  -1.713846083248884E2   8.751362033042232   7.582588363050120E1  -3.340996852521082E1  -8.332970509793380E1  -1.004710701877359E1   7.200267742655457E1
 3.911500000000000E8    -1.154543575859672E1  -1.789543544314468E2   8.716635907788241   7.096813485753404E1  -3.349406716871923E1  -8.831447506035561E1  -1.019925055487441E1   6.996956519699243E1
 3.961000000000000E8    -1.141368730822266E1   1.724178133319993E2   8.652238133962378   6.612878235005064E1  -3.353922190148580E1  -9.205298315095995E1  -1.012545060508458E1   6.507045176978747E1
 4.010500000000000E8    -1.159858941837559E1   1.710392784113364E2   8.589035319571529   6.374682290152703E1  -3.362967657776159E1  -9.390702277803877E1  -1.017309700615946E1   7.019424584780860E1
 4.060000000000000E8    -1.153363167571516E1   1.643750449967243E2   8.501413575193265   5.935418297656558E1  -3.374970078831776E1  -1.011075551974434E2  -1.022993971769291E1   6.872696525329681E1
 4.109500000000000E8    -1.183045576357510E1   1.629309795004889E2   8.440766900216728   5.538875086920861E1  -3.359668887270959E1  -1.029717755186293E2  -9.943070815371819   6.815610308491725E1
 4.159000000000000E8    -1.212795131274725E1   1.560936076533006E2   8.428886024793203   4.944017498322705E1  -3.380870361652070E1  -1.098161274787130E2  -1.043282296975995E1   6.404393515494171E1
 4.208500000000000E8    -1.249811577104019E1   1.508429713451470E2   8.314084549383567   4.557606450169435E1  -3.393388022754564E1  -1.120897571970361E2  -1.042612409123900E1   6.581032303871017E1
 4.258000000000000E8    -1.259874762600108E1   1.446810602191492E2   8.261208956658198   4.071749271040133E1  -3.390639327587924E1  -1.179977880618033E2  -1.045058468774792E1   6.309973298610011E1
 4.307500000000000E8    -1.312401739647626E1   1.407213038168680E2   8.250728868677346   3.730202121785539E1  -3.389915626600449E1  -1.216837814320004E2  -1.024652770412087E1   6.342644311990649E1
 4.357000000000000E8    -1.338018623744823E1   1.351219329621111E2   8.264014921983279   3.054919680778362E1  -3.386154455051536E1  -1.268791832954400E2  -1.015538435711992E1   6.142893291248883E1
 4.406500000000000E8    -1.419657858639012E1   1.294764592388584E2   8.192403866757603   2.639896091563810E1  -3.409033800952924E1  -1.293591013862847E2  -1.007766003398531E1   6.097224469930369E1
 4.456000000000000E8    -1.479957604139156E1   1.252037747222534E2   8.130202347856997   2.116209590396389E1  -3.387233969433891E1  -1.354524852077219E2  -9.915447713661420   6.158267183187565E1
 4.505500000000000E8    -1.629909028834810E1   1.172727643738582E2   8.124442861506662   1.505701493524776E1  -3.384009045725706E1  -1.391541714259289E2  -1.027029460505651E1   6.014671534790352E1
 4.555000000000000E8    -1.676082811695554E1   1.186080375869461E2   8.098948021274127   1.216004330576249E1  -3.397735705287347E1  -1.457023136533255E2  -1.014350373453018E1   5.728317414188815E1
 4.604500000000000E8    -1.845731467446957E1   1.080364458944654E2   8.042171217847853   5.144905932853176  -3.385389991925695E1  -1.498984395118214E2  -1.031053164115849E1   5.916109743034669E1
 4.654000000000000E8    -1.984403329116514E1   1.042011916158152E2   8.066906556263897   7.069995146238576E-1  -3.400438836578454E1  -1.544385814574119E2  -1.021241958877151E1   5.896980000646769E1
 4.703500000000000E8    -2.202035752632171E1   1.008528646637112E2   7.987078677534126  -6.774073670939520  -3.366157240866362E1  -1.623152855926646E2  -1.011718455972642E1   5.494599132042831E1
 4.753000000000000E8    -2.730022394342595E1   1.149951629864128E2   7.951484347672642  -1.242774972307647E1  -3.397532849285295E1  -1.651072333720093E2  -9.949310632939117   5.509427367764804E1
 4.802500000000000E8    -3.178164804717510E1   1.347237499854179E2   7.946331221845817  -1.795872662065897E1  -3.404112834488588E1  -1.751488171843451E2  -9.856579163485414   5.692178286321001E1
 4.852000000000000E8    -3.209517578859798E1  -1.684546312142975E2   7.871726673895336  -2.605779049893766E1  -3.420899502136049E1  -1.797810691471124E2  -9.632340598291957   5.498027941800870E1
 4.901500000000000E8    -2.660450417649260E1  -1.413763919276406E2   7.775338218067495  -3.033517002988435E1  -3.425266928173318E1   1.737470358153891E2  -9.935385102893587   5.517782262544050E1
 4.951000000000000E8    -2.098933686648488E1  -1.374600654621821E2   7.641198678820065  -3.728997271926776E1  -3.415983661383896E1   1.655953327864887E2  -9.588132530179458   5.272187339779837E1
 5.000500000000000E8    -1.753103051920822E1  -1.474368159234650E2   7.534023714818541  -4.443105719391176E1  -3.429783676080447E1   1.587323580240396E2  -9.181489169695539   5.298447803628005E1
