#  HZ   S   DB   R     50.0
! Rohde & Schwarz ZVL
!
!
!
 1.000000000000000E7    -1.154171323831941E1   1.625714715081609E2  -1.511571595144332E1  -1.538506406098462E1  -1.502576433352294E1  -1.714279643579674E1  -1.154588498003041E1   1.579147044661532E2
 1.495000000000000E7    -1.242276065184771E1   1.609280383855606E2  -1.603492799919874E1  -1.377035381824663E1  -1.597287164935290E1  -1.375175644914349E1  -1.229365714363576E1   1.576362799006437E2
 1.990000000000000E7    -1.234004934290301E1   1.627494174892008E2  -1.649023515601716E1  -1.704524591017358E1  -1.644344537308271E1  -1.352851885337907E1  -1.217207949361006E1   1.633371258418356E2
 2.485000000000000E7    -1.292868995979733E1   1.631451886797287E2  -1.671719376277924E1  -1.294385222214945E1  -1.666522948858466E1  -1.309083819246338E1  -1.278110897160144E1   1.634507369418968E2
 2.980000000000000E7    -1.252191334137233E1   1.627787565123422E2  -1.681203497079628E1  -1.178563739741597E1  -1.680063985281351E1  -1.363874855386884E1  -1.260602350994571E1   1.624277768989920E2
 3.475000000000000E7    -1.294756473980202E1   1.616337853682161E2  -1.692125342624633E1  -1.270285930135218E1  -1.691884909780424E1  -1.313448721284234E1  -1.258751510975352E1   1.597094211932250E2
 3.970000000000000E7    -1.274643328404268E1   1.568802659710703E2  -1.702389351477932E1  -1.447534861551863E1  -1.698902003006696E1  -1.263347854925550E1  -1.281079990173529E1   1.604300731628617E2
 4.465000000000000E7    -1.277082634965318E1   1.601448900434220E2  -1.709091994096536E1  -1.497421677223305E1  -1.704123048692783E1  -1.469001938935804E1  -1.298325515449116E1   1.585098440478814E2
 4.960000000000000E7    -1.268769251901283E1   1.547063068033145E2  -1.717613009944745E1  -1.526265848729642E1  -1.713841382893610E1  -1.542748056326703E1  -1.268849395205456E1   1.555850640590205E2
 5.455000000000000E7    -1.294463229782990E1   1.531916535497074E2  -1.723708726580971E1  -1.613482359553060E1  -1.721878620703331E1  -1.678878063387158E1  -1.257392759289869E1   1.547198896634785E2
 5.950000000000000E7    -1.266228221035238E1   1.551343759206653E2  -1.731351633415848E1  -1.590259375389743E1  -1.728372388315087E1  -1.714478580699002E1  -1.274432505908515E1   1.518094885133255E2
 6.445000000000000E7    -1.277260486323556E1   1.555145998665898E2  -1.735649375065486E1  -1.503554530118115E1  -1.732975413434683E1  -1.539828894442099E1  -1.266414954844642E1   1.524848477841538E2
 6.940000000000000E7    -1.286500909108326E1   1.560210940565169E2  -1.740838671960523E1  -1.678458438277494E1  -1.739529199556275E1  -1.643901618147691E1  -1.295254856162228E1   1.537329177677627E2
 7.435000000000000E7    -1.282389583064787E1   1.517604926479219E2  -1.751778188631660E1  -1.789449403748583E1  -1.745867620579264E1  -1.993426729647297E1  -1.299324403696799E1   1.496880069512300E2
 7.930000000000000E7    -1.294319407301524E1   1.496204946732264E2  -1.756605568382933E1  -1.985191840477189E1  -1.755319252540361E1  -1.680488694134234E1  -1.314595761386474E1   1.512363417651849E2
 8.425000000000000E7    -1.291762159217621E1   1.481325164177717E2  -1.762053186064486E1  -1.919231487257538E1  -1.764508153587000E1  -1.942209645243581E1  -1.317800428395092E1   1.479696072823872E2
 8.920000000000000E7    -1.300076622355674E1   1.473706365209310E2  -1.772629124967943E1  -1.830314101024514E1  -1.774771387950749E1  -2.057399110696241E1  -1.299912208043707E1   1.468902860045359E2
 9.415000000000000E7    -1.312839826878533E1   1.454099539460906E2  -1.778227267489257E1  -2.076753801506537E1  -1.775115701567365E1  -1.966360360042364E1  -1.265933513192571E1   1.445017996770462E2
 9.910000000000000E7    -1.295889378416238E1   1.455020210444552E2  -1.787369226660744E1  -2.127110417396585E1  -1.785689052721732E1  -2.197262532457762E1  -1.300442913128479E1   1.459314733414568E2
 1.040500000000000E8    -1.291303620274866E1   1.414853381998472E2  -1.792197414808905E1  -2.185069488030996E1  -1.793100740644051E1  -2.314491041344761E1  -1.302706092395388E1   1.443575126631913E2
 1.090000000000000E8    -1.324731931833175E1   1.418859553514449E2  -1.798601805839650E1  -2.014498404686303E1  -1.797564029829634E1  -2.242252831615559E1  -1.292904628278727E1   1.418533613422362E2
 1.139500000000000E8    -1.316292633948571E1   1.384308345413160E2  -1.801171353760820E1  -2.189034047149923E1  -1.803863982890698E1  -2.182879198054092E1  -1.283442298965878E1   1.437364905343047E2
 1.189000000000000E8    -1.304312564189673E1   1.383315775515328E2  -1.812944361813763E1  -2.298468620162063E1  -1.809514744501625E1  -2.239546591126544E1  -1.266086017875757E1   1.375752966672432E2
 1.238500000000000E8    -1.307937130848299E1   1.373141517645703E2  -1.819993463509441E1  -2.330014381930361E1  -1.815144210129932E1  -2.375515220467791E1  -1.284934199030249E1   1.382133293937449E2
 1.288000000000000E8    -1.299735305986201E1   1.339657529934765E2  -1.821956633970625E1  -2.196352835190407E1  -1.823618614602107E1  -2.252523135214577E1  -1.294028344821907E1   1.390633653509315E2
 1.337500000000000E8    -1.322361911914347E1   1.349231875129277E2  -1.829261079877778E1  -2.366908847033890E1  -1.826682525478910E1  -2.500089012282905E1  -1.296782403183551E1   1.355634639951402E2
 1.387000000000000E8    -1.309574323920883E1   1.329364171744738E2  -1.833158125801167E1  -2.301850848900697E1  -1.832232232034661E1  -2.349096029155065E1  -1.310957671763929E1   1.363306979653624E2
 1.436500000000000E8    -1.300103553837770E1   1.323256592821162E2  -1.839327817832483E1  -2.338333208528754E1  -1.842277605247920E1  -2.481260131728176E1  -1.314000820682713E1   1.330717033398485E2
 1.486000000000000E8    -1.324773981471074E1   1.298651857778953E2  -1.848020776491814E1  -2.399732417047600E1  -1.839832900457611E1  -2.242304653853815E1  -1.287673419445125E1   1.317861039203645E2
 1.535500000000000E8    -1.296209718675008E1   1.304163299319445E2  -1.847532039812932E1  -2.405517121066793E1  -1.846116732062707E1  -2.374602157775341E1  -1.324895021052138E1   1.319630954282807E2
 1.585000000000000E8    -1.304292513186806E1   1.258927089324821E2  -1.852004773024062E1  -2.489454609598061E1  -1.848198527883679E1  -2.530656702444984E1  -1.304168327910166E1   1.300307290418286E2
 1.634500000000000E8    -1.285385640904802E1   1.267397882881858E2  -1.851245774489146E1  -2.519490515605290E1  -1.856654862650787E1  -2.488315781111486E1  -1.274393334726175E1   1.277273999200018E2
 1.684000000000000E8    -1.264415872727863E1   1.239024702648885E2  -1.852265617283817E1  -2.352042960115278E1  -1.858179080182029E1  -2.585391047894761E1  -1.289429581809083E1   1.253912929432778E2
 1.733500000000000E8    -1.298726090250759E1   1.252801187302573E2  -1.859820462048595E1  -2.575332588981720E1  -1.847567715045905E1  -2.519767446523255E1  -1.277151698031245E1   1.252816362822301E2
 1.783000000000000E8    -1.297589565377102E1   1.242147733281683E2  -1.860218668603730E1  -2.769724258161307E1  -1.846532858409480E1  -2.570422132999901E1  -1.266853187160918E1   1.254778198405014E2
 1.832500000000000E8    -1.279584965270084E1   1.221979686119638E2  -1.856659936022112E1  -2.583388522607681E1  -1.856372841605849E1  -2.651108601156551E1  -1.258458375075516E1   1.214802481523844E2
 1.882000000000000E8    -1.258078889988925E1   1.198548102695882E2  -1.858576813835485E1  -2.617681441935270E1  -1.848085702173122E1  -2.756354571648221E1  -1.267512870045853E1   1.226018663399185E2
 1.931500000000000E8    -1.246853860278353E1   1.223799459239576E2  -1.852394155098022E1  -2.705480399675113E1  -1.855127672488701E1  -2.745943279417427E1  -1.257577855541342E1   1.230172374406327E2
 1.981000000000000E8    -1.251049030072330E1   1.192877774034183E2  -1.851041179431452E1  -2.783420106442969E1  -1.854022914346464E1  -2.815830810336068E1  -1.267546570351797E1   1.197112993997928E2
 2.030500000000000E8    -1.229956615710627E1   1.155527630805457E2  -1.849778286310969E1  -2.796532259180773E1  -1.846185582452236E1  -2.837969775070663E1  -1.239327131252835E1   1.192398536120037E2
 2.080000000000000E8    -1.248377396335178E1   1.167240208741386E2  -1.844931031320521E1  -2.848587807018836E1  -1.848012841143218E1  -2.641356824575350E1  -1.219631596037763E1   1.212631940815001E2
 2.129500000000000E8    -1.251146846637170E1   1.155658641375866E2  -1.837332067032587E1  -2.713032737621552E1  -1.844072090128667E1  -2.857922448856913E1  -1.272406945952127E1   1.162990838921077E2
 2.179000000000000E8    -1.256772795614967E1   1.137887004440242E2  -1.841945531945996E1  -2.909561051797326E1  -1.840172744091872E1  -2.928057706733087E1  -1.230323474730819E1   1.156511267401299E2
 2.228500000000000E8    -1.217260110261118E1   1.144469641240086E2  -1.830789390420880E1  -2.822904930694813E1  -1.837170776842169E1  -2.861512627372013E1  -1.227122941615083E1   1.167577151246435E2
 2.278000000000000E8    -1.225943739099650E1   1.129959803045766E2  -1.833631873600793E1  -2.922569998195425E1  -1.834395832092233E1  -2.884814377805538E1  -1.248867654360077E1   1.144429171997570E2
 2.327500000000000E8    -1.254420944334768E1   1.144542798608242E2  -1.831815041773747E1  -2.846887733374966E1  -1.825523025584349E1  -2.995061349564786E1  -1.203451089133690E1   1.104768154503164E2
 2.377000000000000E8    -1.225444342542258E1   1.096068604992789E2  -1.822893377997933E1  -2.966861268375608E1  -1.819000278727360E1  -2.908229188005235E1  -1.205034032868463E1   1.130240640084741E2
 2.426500000000000E8    -1.237113317822861E1   1.100365904872834E2  -1.818914058347017E1  -2.909125956444678E1  -1.818593663177780E1  -3.120366229055377E1  -1.185188311286588E1   1.118544972432403E2
 2.476000000000000E8    -1.255512922949609E1   1.066818634788791E2  -1.813009460324939E1  -3.058411763407096E1  -1.818308209700103E1  -3.020799080048320E1  -1.198791508955410E1   1.163549268524889E2
 2.525500000000000E8    -1.204395602428940E1   1.080544359246263E2  -1.804837585574788E1  -3.078047217233936E1  -1.808838647700953E1  -3.272554872898094E1  -1.206083206707762E1   1.123376402345493E2
 2.575000000000000E8    -1.190768462088825E1   1.067661912141733E2  -1.799660250039617E1  -3.236871519503043E1  -1.806827942741646E1  -3.231575236312324E1  -1.189178053868383E1   1.113465596803860E2
 2.624500000000000E8    -1.180752905918312E1   1.037679235178638E2  -1.799040261881783E1  -3.340223031652603E1  -1.794286151002116E1  -3.315365474432429E1  -1.154591966982359E1   1.060505030475055E2
 2.674000000000000E8    -1.164997517301138E1   1.040415857250353E2  -1.788330363021992E1  -3.355142543539726E1  -1.786469774192577E1  -3.374815635616027E1  -1.180162680759536E1   1.039969247942944E2
 2.723500000000000E8    -1.158500860511176E1   1.065948714320590E2  -1.781881940094404E1  -3.403810494288778E1  -1.778462729572049E1  -3.543932179867516E1  -1.137904360415961E1   1.055325870744147E2
 2.773000000000000E8    -1.154518979809257E1   1.027754447184938E2  -1.778716549145618E1  -3.653249986674333E1  -1.774682940405544E1  -3.554624933107962E1  -1.157223778664523E1   1.032179741478492E2
 2.822500000000000E8    -1.161912784133583E1   1.011788251667271E2  -1.771331085708903E1  -3.871067735426335E1  -1.766139234274938E1  -3.578337909601714E1  -1.140601494553508E1   1.022320045163361E2
 2.872000000000000E8    -1.125997978115706E1   1.007175622092918E2  -1.766236973299198E1  -3.787406773363242E1  -1.760504288852413E1  -3.779164687852395E1  -1.126041719952162E1   1.036039596074600E2
 2.921500000000000E8    -1.145335631843233E1   9.830917818573226E1  -1.761478057243135E1  -3.875678898309218E1  -1.760342617895342E1  -3.812467751393437E1  -1.140683084421783E1   9.898128233968411E1
 2.971000000000000E8    -1.103303006136085E1   9.871963396547135E1  -1.758364626618646E1  -3.921602853553656E1  -1.755777797858546E1  -3.949730117944220E1  -1.130611450914175E1   9.726034562077454E1
 3.020500000000000E8    -1.118487316261520E1   9.395222373555149E1  -1.758017419535694E1  -4.248946980017097E1  -1.742803203746554E1  -4.049763282580370E1  -1.102455600945776E1   9.948460165520471E1
 3.070000000000000E8    -1.104764618536186E1   9.505526412683928E1  -1.748981445577446E1  -4.075774883182901E1  -1.753887998680684E1  -4.194070335905918E1  -1.101048668401272E1   9.396817971534833E1
 3.119500000000000E8    -1.115851619072759E1   9.440701204040637E1  -1.750816614308088E1  -4.292076400262467E1  -1.743995077179866E1  -4.321880032431912E1  -1.112043413806504E1   9.791156966538054E1
 3.169000000000000E8    -1.093376959672941E1   9.486706897671854E1  -1.746560459801368E1  -4.382976001737811E1  -1.746320177711683E1  -4.497593991364052E1  -1.091008170472524E1   9.456892480237143E1
 3.218500000000000E8    -1.089713634188863E1   9.060027381477423E1  -1.742805633854388E1  -4.623697255926884E1  -1.734227636641025E1  -4.549436560300742E1  -1.061453815710769E1   9.494921432968590E1
 3.268000000000000E8    -1.081076812246197E1   9.042078830924784E1  -1.749227472339131E1  -4.653239718828865E1  -1.743089311152177E1  -4.586184639661699E1  -1.071038224385050E1   9.254195392313254E1
 3.317500000000000E8    -1.075522567145682E1   8.732704030692452E1  -1.750560968635060E1  -4.641852152284272E1  -1.742201229627801E1  -4.835359361429298E1  -1.039319372589508E1   8.985100532717395E1
 3.367000000000000E8    -1.075981378999532E1   8.712618264190303E1  -1.749119764016269E1  -4.905947803495864E1  -1.746056277845529E1  -5.014917259268138E1  -1.036732333489185E1   8.971011079980507E1
 3.416500000000000E8    -1.070102094671900E1   8.382502335623494E1  -1.760650136089661E1  -5.305298264028409E1  -1.757888044347843E1  -5.164418067185144E1  -1.036306734823099E1   8.656258579640041E1
 3.466000000000000E8    -1.048364753392089E1   8.595024327029699E1  -1.765720397471555E1  -5.196941154691338E1  -1.758449409743636E1  -5.259655360570044E1  -1.055995500855652E1   8.524035069882631E1
 3.515500000000000E8    -1.039665223942215E1   8.311710642451372E1  -1.774561145463736E1  -5.325105508364948E1  -1.765785409423923E1  -5.495972816546733E1  -1.030259565336122E1   8.471722276618141E1
 3.565000000000000E8    -1.060393600831986E1   8.300833493501784E1  -1.777604728545126E1  -5.548623247041083E1  -1.781837829084518E1  -5.422458247452453E1  -1.008736793750043E1   8.565598722970397E1
 3.614500000000000E8    -1.040204648490983E1   7.937409418572101E1  -1.778625600833052E1  -5.613690102382444E1  -1.784501899378615E1  -5.778711820939171E1  -1.020387815112723E1   8.149900606883438E1
 3.664000000000000E8    -1.072299481466711E1   7.702837729497610E1  -1.796990669811583E1  -5.714532999426394E1  -1.804496278662759E1  -5.609011507999114E1  -1.006641025524287E1   8.438416829836966E1
 3.713500000000000E8    -1.062651085904798E1   7.599408324270412E1  -1.806394588308040E1  -5.813501117043295E1  -1.808203812903422E1  -5.680302335335018E1  -1.001676403823030E1   8.056008565501693E1
 3.763000000000000E8    -1.011048087906429E1   7.479546393848665E1  -1.811311329393112E1  -6.025695469458750E1  -1.819072378165575E1  -5.900735729182027E1  -9.954933940572426   7.807991091198265E1
 3.812500000000000E8    -1.039950619059914E1   7.243673716285394E1  -1.832992340930967E1  -6.088692922297728E1  -1.838005272700572E1  -6.031126749602172E1  -9.764498304684024   7.631148606799572E1
 3.862000000000000E8    -1.046897358311398E1   7.149639300687839E1  -1.835948451480485E1  -6.325163037876612E1  -1.852387652843961E1  -6.140421055683056E1  -1.002294785882268E1   7.689301127643743E1
 3.911500000000000E8    -1.019532137753220E1   6.897994419842431E1  -1.848761505365728E1  -6.466348757688355E1  -1.862140212557655E1  -6.233621310318092E1  -1.014784347765871E1   7.722517250273211E1
 3.961000000000000E8    -1.029655687474903E1   7.012901613175542E1  -1.871868961659555E1  -6.261987545386207E1  -1.874854836166983E1  -6.263986943406648E1  -9.852036851496404   7.355154133967766E1
 4.010500000000000E8    -1.022600451658160E1   6.946775567526029E1  -1.883779063287467E1  -6.341195812461332E1  -1.887153241964140E1  -6.191905118550284E1  -9.772821676574665   7.476136774751086E1
 4.060000000000000E8    -1.037625948583061E1   6.622804058118716E1  -1.900813033459332E1  -6.257786289708432E1  -1.911947348851272E1  -6.328556165916777E1  -1.015275826475527E1   7.425354846724245E1
 4.109500000000000E8    -1.011292665700338E1   6.555552011167937E1  -1.911420209204315E1  -6.365405222259045E1  -1.919919473528769E1  -6.341623754255006E1  -1.002073783147324E1   7.065843032206445E1
 4.159000000000000E8    -1.019589667670046E1   6.615259107236992E1  -1.927105902116715E1  -6.460689558955009E1  -1.934157178110574E1  -6.345034616662223E1  -9.978838518180227   7.067897553958555E1
 4.208500000000000E8    -1.027447085559982E1   6.239500800026877E1  -1.940679783274871E1  -6.462006282211972E1  -1.951359574864579E1  -6.532027188899431E1  -9.799683213231617   6.913027561616033E1
 4.258000000000000E8    -1.008477041242994E1   6.204464892201712E1  -1.957222541003986E1  -6.645471390029026E1  -1.946541567676012E1  -6.402216404865386E1  -9.955193785883891   7.037818534603836E1
 4.307500000000000E8    -1.034783745037468E1   6.409126956074674E1  -1.962226069793563E1  -6.310841678889101E1  -1.958815832583284E1  -6.314064557804939E1  -9.907754690658031   6.591852484603281E1
 4.357000000000000E8    -1.013892702616007E1   6.429560446820493E1  -1.965433587118930E1  -6.359051850879097E1  -1.959454905624634E1  -6.452662446846122E1  -9.767946513448637   6.711520070456167E1
 4.406500000000000E8    -1.010775357716235E1   5.898445571794285E1  -1.979536143259361E1  -6.405432903466418E1  -1.976980159405469E1  -6.228051618090511E1  -9.872520143261351   6.545973922711860E1
 4.456000000000000E8    -1.015208454267494E1   5.883260493733635E1  -1.986554697776524E1  -6.371726114268874E1  -1.972447102012253E1  -6.211760740604251E1  -9.947334888646804   6.541082030530758E1
 4.505500000000000E8    -1.010289173682094E1   5.934618724167330E1  -1.981277928589631E1  -6.148792955051113E1  -1.969381380209129E1  -6.208323248210454E1  -1.001315197454034E1   6.238352865710031E1
 4.555000000000000E8    -9.988721621283371   5.781581760417878E1  -1.981088306138304E1  -6.155485305270956E1  -1.965879224081333E1  -6.306785525158684E1  -9.728488837838510   6.204353159078396E1
 4.604500000000000E8    -1.008931833800543E1   5.848509082045655E1  -1.980642437079742E1  -6.188973021228743E1  -1.963634903981472E1  -6.226789847771763E1  -9.817420960504476   6.148628483576174E1
 4.654000000000000E8    -1.004155647527979E1   5.943325894875207E1  -1.965648074649636E1  -6.266890484334023E1  -1.954483035213189E1  -6.219316969400270E1  -9.863014127187141   6.222349098118114E1
 4.703500000000000E8    -1.007929585257987E1   5.450586762060576E1  -1.956649046208879E1  -6.255063565909087E1  -1.929267802072703E1  -6.278883702303484E1  -9.768165530339990   6.145547510736340E1
 4.753000000000000E8    -1.019521699290100E1   5.533918395991477E1  -1.945265965248839E1  -6.075834401415218E1  -1.909781584800986E1  -6.121698987153133E1  -9.606076045297799   6.000340824677524E1
 4.802500000000000E8    -9.768034451823977   5.693917727553528E1  -1.914626665741024E1  -6.053077356021412E1  -1.895890721837747E1  -6.283375416775499E1  -9.712001993289574   6.027284381009233E1
 4.852000000000000E8    -1.008757111124392E1   5.395119324716298E1  -1.898303484921818E1  -6.309944523518052E1  -1.874664773455170E1  -6.440143106601292E1  -9.604747367678282   5.708768368086970E1
 4.901500000000000E8    -9.568948829174850   5.503376508509655E1  -1.868335009902244E1  -6.277509641082492E1  -1.859187994705520E1  -6.390139839366155E1  -9.630283225856861   5.944036970842900E1
 4.951000000000000E8    -9.596379600499111   5.330044047312728E1  -1.849874885842372E1  -6.386830375024745E1  -1.830943303329230E1  -6.585725328697797E1  -9.284301933241791   5.802412634264870E1
