#  HZ   S   DB   R     50.0
! Rohde & Schwarz ZVL
!
!
!
 1.000000000000000E7    -2.495521118150997  -4.883150289421152E1   1.020098918310540E1  -1.576653501048160E2  -3.376564451698603E1   5.034483875066216E1  -1.155149791656016E1   1.644770209631538E2
 1.495000000000000E7    -4.700450153069490  -6.126694116242042E1   1.075653852479267E1  -1.692072992845655E2  -3.260765409587678E1   3.202890724276762E1  -1.192597721230164E1   1.617928931585202E2
 1.990000000000000E7    -6.675514854676098  -6.857904929871481E1   1.091019987941225E1   1.786248367825631E2  -3.228325416024330E1   1.695702242169078E1  -1.238292486109289E1   1.628095124073119E2
 2.485000000000000E7    -8.093997735163082  -7.560946299819103E1   1.093719455700172E1   1.746087736783225E2  -3.199186354459312E1   6.877849053378110  -1.241329551879948E1   1.626844207914407E2
 2.980000000000000E7    -9.129444967416021  -7.820562487339866E1   1.094265793862710E1   1.695232866763062E2  -3.195948676497718E1   1.804709502703041  -1.308528204245437E1   1.628598418684577E2
 3.475000000000000E7    -9.855450479718771  -8.243090067939380E1   1.088136623693641E1   1.638655959915548E2  -3.187143328007303E1  -5.451760776484228  -1.288910933574544E1   1.604009343825249E2
 3.970000000000000E7    -1.065466713113810E1  -8.757902291471959E1   1.089503179979969E1   1.581426365151389E2  -3.205476183576867E1  -1.028216714187837E1  -1.289337443794953E1   1.575965524105434E2
 4.465000000000000E7    -1.099677447999511E1  -8.963452900270437E1   1.080276524210691E1   1.547081386619127E2  -3.208097535814648E1  -1.629837383071502E1  -1.288267497085133E1   1.600428041778656E2
 4.960000000000000E7    -1.154268704181024E1  -9.557014634728698E1   1.084013351895722E1   1.504073629685302E2  -3.190181598474635E1  -2.114866573242629E1  -1.300521612431526E1   1.573070326607695E2
 5.455000000000000E7    -1.189557005961487E1  -9.803454853429565E1   1.081730961585118E1   1.476046051433793E2  -3.204612899130130E1  -2.418272187650465E1  -1.297907460538974E1   1.544138985104255E2
 5.950000000000000E7    -1.209361701875328E1  -1.029458107413597E2   1.074701906891859E1   1.433823515241527E2  -3.195909186618667E1  -2.884782618831248E1  -1.274422395291024E1   1.516705593980649E2
 6.445000000000000E7    -1.227180230713245E1  -1.071421895122896E2   1.073814386462561E1   1.415030540170376E2  -3.203180567385558E1  -2.927756605464665E1  -1.280382530618105E1   1.543687507133258E2
 6.940000000000000E7    -1.265119909985461E1  -1.115889024199965E2   1.069441432223499E1   1.357849908943852E2  -3.206302831781945E1  -3.407434893719557E1  -1.303302497193411E1   1.533557905478818E2
 7.435000000000000E7    -1.250543343661931E1  -1.150488330583834E2   1.070871064459270E1   1.343439506771820E2  -3.198526998394199E1  -3.917630999839509E1  -1.307866825703000E1   1.512067292532088E2
 7.930000000000000E7    -1.260426020749508E1  -1.172806250403543E2   1.063074491820744E1   1.283433771797810E2  -3.215824917406646E1  -4.055994386801064E1  -1.283795353205173E1   1.510716444606437E2
 8.425000000000000E7    -1.280373965465060E1  -1.246468062544348E2   1.062680393134534E1   1.260304120673582E2  -3.228332140499943E1  -4.499086943611808E1  -1.283074154201551E1   1.482175797369021E2
 8.920000000000000E7    -1.256632206157789E1  -1.294954552996821E2   1.059877706238737E1   1.226981793755951E2  -3.214215460843862E1  -4.976375535775610E1  -1.267616609721782E1   1.480689078065652E2
 9.415000000000000E7    -1.314772782170917E1  -1.297064884750113E2   1.052191867722166E1   1.186559371109624E2  -3.212625037744715E1  -5.115285196219679E1  -1.315811832074877E1   1.475104935295813E2
 9.910000000000000E7    -1.335627090084895E1  -1.338440710199593E2   1.054315797263829E1   1.158704024106882E2  -3.223390053651065E1  -5.694737944798849E1  -1.260179008643836E1   1.450072395602242E2
 1.040500000000000E8    -1.333060031437280E1  -1.407267307370927E2   1.055211766338325E1   1.114378765898349E2  -3.236770165353644E1  -5.987477910036861E1  -1.304143333405650E1   1.461689649383193E2
 1.090000000000000E8    -1.350433199243378E1  -1.452654463888838E2   1.050632997594263E1   1.093133476820424E2  -3.203282183167590E1  -6.098952226970088E1  -1.281748811636712E1   1.403521428161095E2
 1.139500000000000E8    -1.344151907868705E1  -1.487360712776983E2   1.046368534915809E1   1.046339502778837E2  -3.231202058993193E1  -6.383477253455449E1  -1.289779240446170E1   1.425663100073158E2
 1.189000000000000E8    -1.399528207620676E1  -1.529410466305966E2   1.044063896871704E1   1.023716588864254E2  -3.230845218089631E1  -6.612958392633017E1  -1.294082165392961E1   1.389751295957037E2
 1.238500000000000E8    -1.378660479843710E1  -1.577696969683722E2   1.039770159231919E1   9.996432331487775E1  -3.226848260114596E1  -7.114197813987045E1  -1.293325783945082E1   1.363159601482139E2
 1.288000000000000E8    -1.391004856774223E1  -1.633069649013570E2   1.040464437383028E1   9.710114091330912E1  -3.226513598682354E1  -7.317478889438137E1  -1.313935109597542E1   1.368871684819698E2
 1.337500000000000E8    -1.391800372918089E1  -1.696770940795794E2   1.038080806376250E1   9.280148151104778E1  -3.221437176658460E1  -7.724457924384724E1  -1.288645954380555E1   1.358230259187094E2
 1.387000000000000E8    -1.438362791905854E1  -1.711188844642751E2   1.036124496465320E1   9.000332180952130E1  -3.241408864462475E1  -7.946893406346068E1  -1.297585928245065E1   1.363601102509523E2
 1.436500000000000E8    -1.429437064058221E1  -1.762374131989461E2   1.032618456765652E1   8.627419599853140E1  -3.252895852381493E1  -8.337037119283986E1  -1.321592436576060E1   1.333664239360443E2
 1.486000000000000E8    -1.444186876640766E1   1.795983287940438E2   1.031792435383994E1   8.266059822253023E1  -3.229225499848675E1  -8.532559203181980E1  -1.309685991016340E1   1.321620597567983E2
 1.535500000000000E8    -1.490080006833757E1   1.729464266954356E2   1.031397840353861E1   7.872496420227596E1  -3.213470815506048E1  -8.920315603100340E1  -1.303174974852117E1   1.307596308885738E2
 1.585000000000000E8    -1.529757539540571E1   1.669792190774683E2   1.030184505457259E1   7.593795694941879E1  -3.238486460923831E1  -9.181312717903710E1  -1.306773308114866E1   1.299732191342369E2
 1.634500000000000E8    -1.521474971388391E1   1.623745608933571E2   1.028110370813261E1   7.187145209785980E1  -3.228624920472343E1  -9.539165551522504E1  -1.299090883336062E1   1.273996692249007E2
 1.684000000000000E8    -1.535131764132826E1   1.556118868609586E2   1.028191115161436E1   7.072117890789697E1  -3.245243835934039E1  -9.931005078135546E1  -1.291692535647154E1   1.277146944961130E2
 1.733500000000000E8    -1.545988102349693E1   1.503490996283298E2   1.024113963227363E1   6.577547380094559E1  -3.240319725609803E1  -1.007183313053139E2  -1.288249469781313E1   1.262794117128352E2
 1.783000000000000E8    -1.581482836192260E1   1.488249115088649E2   1.022307694576156E1   6.259443004531113E1  -3.224867154439574E1  -1.057428102754367E2  -1.259756737728288E1   1.248744411536242E2
 1.832500000000000E8    -1.572950590714937E1   1.426260454263079E2   1.021381748149233E1   5.917523050917324E1  -3.245466926174552E1  -1.077557207577709E2  -1.261088092499295E1   1.235823690132648E2
 1.882000000000000E8    -1.652024616248908E1   1.344905418619264E2   1.021981496234348E1   5.569031526321338E1  -3.230347968319149E1  -1.108780291033898E2  -1.271482670655795E1   1.226413775379994E2
 1.931500000000000E8    -1.659416437977759E1   1.290225363154883E2   1.023171590242960E1   5.200283724100926E1  -3.243693297013891E1  -1.170064571962918E2  -1.267674499882092E1   1.213050540434328E2
 1.981000000000000E8    -1.735683385895771E1   1.251103301930190E2   1.020874426049471E1   4.899811413236427E1  -3.240517405271864E1  -1.180239914616624E2  -1.272380859709122E1   1.215314445298059E2
 2.030500000000000E8    -1.759354477034134E1   1.213208291779458E2   1.023288943317016E1   4.581528611971949E1  -3.229922808639434E1  -1.236458284890932E2  -1.271775671162116E1   1.164351528367909E2
 2.080000000000000E8    -1.819900410742271E1   1.099396826668759E2   1.020029580217957E1   4.164952261679426E1  -3.246772140850474E1  -1.221688467730127E2  -1.229399462535700E1   1.198983772075883E2
 2.129500000000000E8    -1.804029845123796E1   1.064243214767964E2   1.025820822306671E1   3.914390162757911E1  -3.232528190962273E1  -1.291677241410623E2  -1.258364890022975E1   1.177424422665218E2
 2.179000000000000E8    -1.971836858663303E1   9.544208993665841E1   1.017269082779264E1   3.416292857910437E1  -3.246323096393191E1  -1.318021064621568E2  -1.241693898053213E1   1.164946461078622E2
 2.228500000000000E8    -1.993386953874186E1   9.355042858371321E1   1.018757852886431E1   3.025769323112169E1  -3.243513714524547E1  -1.333132109568509E2  -1.216268645131431E1   1.157577256347984E2
 2.278000000000000E8    -2.083295501848527E1   8.998115332505199E1   1.015280446233467E1   2.850600688149781E1  -3.243379268952363E1  -1.383654393843355E2  -1.217398991747844E1   1.113071967374985E2
 2.327500000000000E8    -2.151175689531053E1   7.333237738674501E1   1.011934612351176E1   2.437888260474714E1  -3.234188895553054E1  -1.418085273853913E2  -1.204557232043702E1   1.111371536242182E2
 2.377000000000000E8    -2.210293049382067E1   6.310505491969656E1   1.013835761643938E1   2.278007878441524E1  -3.236755391212694E1  -1.425340441841885E2  -1.207166162298804E1   1.116540967417598E2
 2.426500000000000E8    -2.139939222468885E1   4.900500261321058E1   1.014984076054729E1   1.864129499748654E1  -3.230665739643640E1  -1.484411140968537E2  -1.205623973053842E1   1.092728979644145E2
 2.476000000000000E8    -2.285162812373308E1   3.548989553857594E1   1.010616357091219E1   1.392078134929787E1  -3.237659698181026E1  -1.499206509609074E2  -1.194174153195085E1   1.125501898228652E2
 2.525500000000000E8    -2.286790326176649E1   2.806685374622640E1   1.010627211822308E1   1.120344101764672E1  -3.243405286601328E1  -1.541163596389886E2  -1.180910058274913E1   1.114232276082850E2
 2.575000000000000E8    -2.298302390129801E1   1.380739401612408E1   1.010436741730243E1   5.914385582259743  -3.246525560074801E1  -1.580996992344115E2  -1.167682355944085E1   1.065430999148056E2
 2.624500000000000E8    -2.318690217733660E1  -6.741091768032182   1.006689896736876E1   1.495674571351798  -3.232354932740300E1  -1.604076527196243E2  -1.174283078128208E1   1.098401142854376E2
 2.674000000000000E8    -2.312712766244128E1  -9.291390601466336   1.005952982644386E1  -7.284166568815411E-1  -3.224974875273593E1  -1.642406294711579E2  -1.157366827748058E1   1.011753966371533E2
 2.723500000000000E8    -2.116676917898838E1  -2.384495946892122E1   1.004173260140981E1  -4.098346984859068  -3.234698591756200E1  -1.692351261850455E2  -1.131130772387288E1   1.040351099702928E2
 2.773000000000000E8    -2.078510539062519E1  -3.346721598089629E1   9.957854753860364  -9.101162656399055  -3.232244635646011E1  -1.700271734442029E2  -1.147811718937525E1   1.033747037263075E2
 2.822500000000000E8    -1.995761907095555E1  -5.334292186704936E1   9.946044408626422  -1.430447709104607E1  -3.236093807297206E1  -1.720125229596751E2  -1.148465281937186E1   1.039803208007936E2
 2.872000000000000E8    -1.971884668659960E1  -5.375637785839425E1   9.912451360798766  -1.664476985647441E1  -3.243914918453464E1  -1.788375785553899E2  -1.157231091940488E1   1.043539295956897E2
 2.921500000000000E8    -1.823454903115200E1  -6.682591296512177E1   9.869116126447663  -2.008416081330898E1  -3.219767466170044E1   1.768319448660253E2  -1.131726794288924E1   9.972216090757310E1
 2.971000000000000E8    -1.807565177986400E1  -7.284221928451495E1   9.855959828335244  -2.321917646960262E1  -3.256284545592732E1   1.737193048389993E2  -1.107705515313223E1   9.706790587446957E1
 3.020500000000000E8    -1.745820066169801E1  -8.198106965993605E1   9.798652089592371  -2.852080840634251E1  -3.231436271304351E1   1.693271599180847E2  -1.123293178587486E1   9.930707378271669E1
 3.070000000000000E8    -1.666765278395564E1  -8.784298901817654E1   9.775001230599511  -3.204649272281657E1  -3.252368596238817E1   1.663391473867926E2  -1.107352713483699E1   9.581186975278486E1
 3.119500000000000E8    -1.569269879948950E1  -9.663278914085602E1   9.739902304659356  -3.566794514075874E1  -3.245444261573820E1   1.620883124717228E2  -1.088429889481204E1   9.499015111999056E1
 3.169000000000000E8    -1.551652699207047E1  -1.008010768591646E2   9.636332227966950  -4.026353423982837E1  -3.248551255458285E1   1.598775111737547E2  -1.100373322173872E1   9.481842307735347E1
 3.218500000000000E8    -1.477477372530269E1  -1.096714687275600E2   9.623172117134157  -4.400256044509649E1  -3.246104236986725E1   1.551438248785258E2  -1.051357082751030E1   9.407917111200270E1
 3.268000000000000E8    -1.437334158770113E1  -1.105324919113087E2   9.560458212351552  -4.664344253979017E1  -3.261033499161768E1   1.532110681814152E2  -1.062933190825421E1   9.117486872969973E1
 3.317500000000000E8    -1.395132409663661E1  -1.223250290616712E2   9.528028964883614  -5.063637785946909E1  -3.262621716436146E1   1.487800376316620E2  -1.051443630738734E1   9.051386918297091E1
 3.367000000000000E8    -1.342523189704416E1  -1.248944737154213E2   9.442377668673952  -5.361507716494581E1  -3.270618741633426E1   1.425830152920488E2  -1.063583217638186E1   8.946373423302940E1
 3.416500000000000E8    -1.321150457749778E1  -1.320214760702907E2   9.407482647926861  -6.035529715396779E1  -3.279733311871744E1   1.396078384883499E2  -1.025350166134282E1   8.783166342941189E1
 3.466000000000000E8    -1.268927007158761E1  -1.343944131718725E2   9.339714998956630  -6.386099459887306E1  -3.279401806703001E1   1.364943064315008E2  -1.037096825567072E1   8.440211200404123E1
 3.515500000000000E8    -1.225459532923381E1  -1.381478849792168E2   9.289422619608567  -6.807494988992136E1  -3.294396762373172E1   1.307049998527508E2  -1.042593191187469E1   8.530630684301852E1
 3.565000000000000E8    -1.211047569446960E1  -1.434147273579494E2   9.195461309188303  -7.259553575185527E1  -3.299051560305722E1   1.269309253409430E2  -1.023736552821219E1   8.245875759713243E1
 3.614500000000000E8    -1.191228998085884E1  -1.518037916090353E2   9.140070158710996  -7.587197826105687E1  -3.301175096338455E1   1.211177742080495E2  -1.006613658192940E1   8.304746428312623E1
 3.664000000000000E8    -1.173074192838925E1  -1.576327244408298E2   9.100013261261733  -7.987484693048295E1  -3.296836356817594E1   1.216874206980777E2  -1.024156361415025E1   8.442009780013471E1
 3.713500000000000E8    -1.166476736090069E1  -1.609105396122061E2   9.040924621131554  -8.417754554726797E1  -3.328214408628476E1   1.182754276153520E2  -1.007132903651722E1   8.141320427392445E1
 3.763000000000000E8    -1.168510884608396E1  -1.663577156220552E2   8.964777904421439  -8.834875271408694E1  -3.318449974639617E1   1.110005852794890E2  -1.015707518101318E1   7.928018872436361E1
 3.812500000000000E8    -1.149344575088983E1  -1.717256357040735E2   8.913018114840069  -9.286258117448064E1  -3.328598366786930E1   1.079024998279246E2  -1.005099171221369E1   7.605582309846318E1
 3.862000000000000E8    -1.143863938596446E1  -1.740656680965221E2   8.830465046773879  -9.645061984013482E1  -3.337343640202224E1   1.050884346197848E2  -9.971175033574841   7.772453509503940E1
 3.911500000000000E8    -1.176582920872179E1  -1.788202703813945E2   8.753212433576131  -1.007773948989883E2  -3.341111433305272E1   1.005605164121901E2  -1.005819965759136E1   7.453977476594477E1
 3.961000000000000E8    -1.143218132163216E1   1.766051378850569E2   8.710187894646341  -1.052565810928352E2  -3.342201430732119E1   9.638691839968128E1  -9.895970853985906   7.314393619479597E1
 4.010500000000000E8    -1.192422681785150E1   1.687962070099046E2   8.612128974444753  -1.109266523224514E2  -3.355242881172482E1   9.263604262563082E1  -1.001743950205020E1   7.280619418874976E1
 4.060000000000000E8    -1.170399545603103E1   1.648403076388447E2   8.585765010231979  -1.122413209125669E2  -3.352800579158858E1   8.802366787888342E1  -9.783652866095917   6.756493190525332E1
 4.109500000000000E8    -1.170426717900815E1   1.588696625354179E2   8.520616582534819  -1.177465410485729E2  -3.370213044722254E1   8.406546427258978E1  -9.828056316399049   7.275205880063857E1
 4.159000000000000E8    -1.182197222605151E1   1.563028018158475E2   8.487064801273535  -1.213679289968909E2  -3.387845607603088E1   7.928928906337728E1  -9.688147591863920   6.920438320301146E1
 4.208500000000000E8    -1.237446815754754E1   1.523394431221376E2   8.388187187884030  -1.273152449183327E2  -3.393941505621160E1   7.501261563250721E1  -1.009572857624246E1   6.976125412866628E1
 4.258000000000000E8    -1.281829040343220E1   1.468727436036981E2   8.353175522376294  -1.320127330438327E2  -3.376333157420288E1   7.241780724494483E1  -1.009673186817863E1   6.780092744201970E1
 4.307500000000000E8    -1.305030700780412E1   1.388300029937371E2   8.312508269612414  -1.362810895671141E2  -3.367940014159716E1   6.617556329080412E1  -9.939669481791798   6.762915031031614E1
 4.357000000000000E8    -1.365903417537983E1   1.366589270078401E2   8.311489793666789  -1.401940968556560E2  -3.369167139015256E1   6.276149084049664E1  -9.825049071371385   6.755162597782486E1
 4.406500000000000E8    -1.381854347402020E1   1.298821805344074E2   8.228860231627552  -1.467120612503535E2  -3.361197766742639E1   5.797430278079808E1  -9.966405166354427   6.174373117267883E1
 4.456000000000000E8    -1.463378330534841E1   1.222313420747583E2   8.216820393044838  -1.501976959874026E2  -3.387718786205394E1   5.389340403188913E1  -9.863062093050964   6.444794700319883E1
 4.505500000000000E8    -1.579896649111608E1   1.191989016223826E2   8.183512572812228  -1.552400384774021E2  -3.387695177669284E1   5.019374838209448E1  -9.766974778476405   6.227542957014367E1
 4.555000000000000E8    -1.621422610783797E1   1.166693426568251E2   8.179654160963581  -1.594266933092988E2  -3.376608558127364E1   4.461435018125655E1  -9.796266895339830   6.425903286958734E1
 4.604500000000000E8    -1.806791716546645E1   1.115203625967807E2   8.142268278229210  -1.667133970577245E2  -3.376169686176704E1   3.849654866504391E1  -9.686635924477741   6.274987851026926E1
 4.654000000000000E8    -2.006802353256375E1   1.084373863712343E2   8.113980530421838  -1.722605018700608E2  -3.374494551423696E1   3.336916005404447E1  -9.876870878662645   6.266248591546024E1
 4.703500000000000E8    -2.303721048616396E1   1.072628305660552E2   8.062623362359130  -1.790537326402311E2  -3.369709700878651E1   2.704851665903177E1  -9.778414729575673   6.120126114697446E1
 4.753000000000000E8    -2.659440876872681E1   1.067293134446249E2   8.011552943050244   1.779400712493735E2  -3.367109201014437E1   2.295611912816620E1  -9.720207284649110   5.894459559906620E1
 4.802500000000000E8    -3.062246343589782E1   1.439950632081462E2   8.017691140422773   1.700056986512480E2  -3.385531600119549E1   1.733930266351110E1  -9.718906428027120   5.986579246659284E1
 4.852000000000000E8    -3.099792811196246E1  -1.540470504030935E2   7.933793534794011   1.639239422176913E2  -3.375821617724409E1   1.125947788290691E1  -9.539625231229735   6.052304094136215E1
 4.901500000000000E8    -2.508763620207512E1  -1.465137117026901E2   7.889007935304642   1.580883068069597E2  -3.383530375429464E1   4.288772339080506  -9.427055836527213   5.907074990886345E1
 4.951000000000000E8    -2.090412251274593E1  -1.462991539625044E2   7.743160466206415   1.521375505832687E2  -3.396972241397300E1  -4.236034035064546  -9.119298024480203   5.724060120137027E1
 5.000500000000000E8    -1.766898365261256E1  -1.432367406215023E2   7.631049559521945   1.448379540218715E2  -3.417620460880532E1  -1.285613298218966E1  -9.086935084388397   5.923958407498988E1
