!Created with skrf (http://scikit-rf.org).
# Hz S RI R 50.0
!freq ReS11 ImS11 ReS12 ImS12 ReS13 ImS13
! ReS21 ImS21 ReS22 ImS22 ReS23 ImS23
! ReS31 ImS31 ReS32 ImS32 ReS33 ImS33
!
10000000.0 0.49389171600341786 -0.5647942458832127 -0.013059009352207513 -0.014989859424531458 0.013081305785292235 0.01578162238001823
 3.0123281975039564 1.2329636812210085 -0.2526412606239317 0.07931114159331537 0.1694243027921751 -0.05226027965545651
 -2.9935177326763465 -1.2298464775085445 0.1691863741359783 -0.04655424505472184 -0.24525046348571794 0.09951257458277844
14950000.0 0.27981969714164723 -0.5104017763689047 -0.01997236756226386 -0.01209173258394002 0.01985641242849498 0.012421597726643089
 3.3922673626546986 0.5869801640510562 -0.22612252831459043 0.07817804231152954 0.15442775515909254 -0.03779324889183044
 -3.3890344552618203 -0.6460454463958754 0.15331618990840487 -0.037573963403701775 -0.224573716521263 0.09239629123672474
19900000.0 0.16934621334075925 -0.4316559251082649 -0.023960275913770823 -0.006346608977764857 0.02325589565828971 0.007090970408171415
 3.512941110026953 -0.17611822485923762 -0.23067928850650793 0.07163039436526146 0.14642232296924138 -0.035229980945587165
 -3.5106286553062707 0.0842752233147613 0.14321204851038544 -0.0439080111682415 -0.2359203398227691 0.07061289793913236
24850000.0 0.09787657856941225 -0.38146565106517444 -0.02494283741214212 -0.002946039196103821 0.02496147333351911 0.003010879037901761
 3.5102689612774745 -0.42497050762176525 -0.2160213887691496 0.06544625945321637 0.1429890961682909 -0.03325050324201583
 -3.506988204629166 0.33096617460250743 0.14222052612048205 -0.03268742933869362 -0.22007501125335682 0.06539506449674648
29800000.0 0.07145103812217711 -0.3421846444310619 -0.02502516427557558 -0.00019308687478770912 0.02522378102080541 0.0007947646081447605
 3.457589749960772 -0.6931732296943663 -0.22593545913696303 0.07003051498738136 0.14045774315504936 -0.03408087044954298
 -3.466025046516894 0.6409327983856163 0.14130087159865007 -0.0294823255389929 -0.22332911193370825 0.07072502115251741
34750000.0 0.04235308989882467 -0.31873280594841225 -0.025192088261120373 0.002639298094436528 0.025378115301403874 -0.0024220715276896967
 3.351746845387375 -1.0460647344589238 -0.21375502645969388 0.0709668685267143 0.13884967621461458 -0.032399445772171014
 -3.3621456938414735 0.9726209044456461 0.13905131373270227 -0.031343858689069755 -0.2201922684907914 0.08141043520782691
39700000.0 0.012388121336698534 -0.2930075646824094 -0.024750839330814862 0.004745257087051872 0.024560138265678527 -0.004455437418073411
 3.2392267382791298 -1.377239465713501 -0.21199131011962902 0.09050826778153259 0.13800822659240639 -0.030933173373341564
 -3.253514192075909 1.3050928115844722 0.13639397815608834 -0.035211279988288886 -0.21558497846126562 0.07663887862394558
44650000.0 0.0017984096193685998 -0.28193723794293546 -0.023713321179428138 0.0074538751505315165 0.023885700170704464 -0.006983931642025704
 3.11171331573966 -1.5619528293609621 -0.21619351208209986 0.07806943400845777 0.1359893897112928 -0.03565083071589468
 -3.135996029620779 1.4818335771560662 0.13503616642742827 -0.036117710173130015 -0.20871061086654655 0.08217187596099229
49600000.0 -0.025699537247419368 -0.2635178874617558 -0.023211747074035703 0.009058541618287563 0.023693362354399197 -0.009165636263787745
 3.036522325489823 -1.7162859439849862 -0.20981959998607647 0.09915301562739334 0.13401144569045007 -0.03698206320405007
 -3.029042937568052 1.720221042633054 0.13353616924845163 -0.03643783554434775 -0.21129609644413008 0.09591458311758214
54550000.0 -0.0355333425104618 -0.2517313981948283 -0.022719036410539125 0.01071292813867329 0.022793153696714218 -0.010235388763248922
 2.8977503344504387 -1.9503852128982542 -0.20108811557292944 0.1016136866791649 0.13186916621869504 -0.03978547453880309
 -2.9335857310964544 1.8613793849945086 0.13203617476667262 -0.03819723427295684 -0.21260963380336764 0.10040983165708857
59500000.0 -0.05567038059234616 -0.2421796826967485 -0.021899404780535776 0.012040796689689144 0.022105586242630575 -0.012176688760519028
 2.766091212917629 -2.0879297256469727 -0.21117140352726 0.09786854856008577 0.1306390693995271 -0.04030163213610648
 -2.7661032703653587 2.055611848831178 0.13103184406368318 -0.037331815809011466 -0.20321126282215132 0.10891759858419409
64450000.0 -0.07175545394420615 -0.23263509235640423 -0.021004830848450503 0.013252210803329957 0.02183011795754456 -0.012239254079759121
 2.6483789098777932 -2.202116012573243 -0.2091428786516191 0.09524754732190949 0.13111001833095817 -0.03610950335860249
 -2.694449050422892 2.1430270671844474 0.13093230327835906 -0.03517027944326399 -0.20637716352939603 0.10750252857425865
69400000.0 -0.08574766665697071 -0.21669650108151825 -0.020085215750193036 0.014380373992025833 0.020655805834574794 -0.013971549458801748
 2.4060561658324984 -2.413034200668334 -0.20775470137596116 0.09240671851783608 0.12945207658234723 -0.0381956249475479
 -2.4551332040931824 2.3887643814086914 0.12902469159471167 -0.0389169752597809 -0.20185500383377078 0.09961869979196576
74350000.0 -0.10033893585205098 -0.21469960461012497 -0.01930336547827576 0.016116909682750695 0.019505338175340163 -0.015894740819931027
 2.2507544388264558 -2.576431512832642 -0.2012657970190048 0.10809651894738816 0.12596010935822358 -0.04568214714527129
 -2.398227550284729 2.453786611557006 0.12664156323417164 -0.040890671312809004 -0.19341692328453058 0.11307804124008433
79300000.0 -0.10739481449127203 -0.20824639367593914 -0.018678266577763634 0.016719194129109383 0.01873892096927896 -0.01603848673403262
 2.068257555042114 -2.709136486053467 -0.19440050423145303 0.11396064552991997 0.12687793230277325 -0.03831851482391356
 -2.109551469394017 2.667001724243162 0.12447723277450853 -0.04494201764464375 -0.19297878444194805 0.10593164285554534
84250000.0 -0.13018342852592485 -0.18838219106101176 -0.01690508379249576 0.01803200505673886 0.017194443696644572 -0.017188964411616322
 1.9000269858894951 -2.816026926040648 -0.1919399797916411 0.11932103565141643 0.12368047080128432 -0.04360838979482651
 -1.9992908928961546 2.7487185001373295 0.12420492015848131 -0.04323405027389526 -0.185941457748413 0.11632630937408883
89200000.0 -0.14967615902423856 -0.1816010465745974 -0.015096375093246777 0.018934844061732306 0.015961912933277426 -0.01886415481567383
 1.7816362627324736 -2.8690936565399183 -0.18852312862873058 0.12070174685458099 0.1213366019666828 -0.04554457962512972
 -1.8302244417958595 2.851066827774048 0.12334979857605177 -0.040801547467708595 -0.1875400841236114 0.12230115557903214
94150000.0 -0.14060989022254947 -0.16932641109306665 -0.014875665275213093 0.019213655963540084 0.015528325466384557 -0.019280830398201942
 1.5139437672597327 -2.989667892456054 -0.1815950125455856 0.12522745142113312 0.12199655492610055 -0.04359367862343789
 -1.6103813634978623 2.9467995166778564 0.12070086638348151 -0.0457717217504978 -0.18955227732658386 0.1351973424675665
99100000.0 -0.14884370565414445 -0.15497398846933677 -0.01279755486967984 0.020996322855353366 0.013336052810436892 -0.020494488999247537
 1.3526873836899853 -3.0836744308471675 -0.18537858128547668 0.12739754152121993 0.1186875350857008 -0.047886926680803285
 -1.468858566671937 3.028975963592532 0.11903446498964253 -0.04634045436978339 -0.18535399436950695 0.1253456534993501
104050000.0 -0.16683495044708235 -0.13642289542876793 -0.011216952214421665 0.021641412749886502 0.012084391121114344 -0.020825535058975216
 1.189129305682281 -3.1411910057067893 -0.17693108320236212 0.14081127648678318 0.11668306484990873 -0.04987768083810809
 -1.2316405947329931 3.1366710662841792 0.1179024095635917 -0.04727865010499957 -0.1813679635524749 0.1300502438153982
109000000.0 -0.17360004782676683 -0.1203613273146717 -0.010908303284530546 0.021599192172288888 0.012135938969957136 -0.021884374320507036
 0.9539267564737489 -3.207994699478148 -0.1711943447589874 0.13430128995785343 0.11670140984498842 -0.04815454035997392
 -1.1086530952162783 3.1634535789489737 0.11838136660181942 -0.04342684894800186 -0.1775044053792952 0.13941470290965752
113950000.0 -0.18187847733497628 -0.11042707437655055 -0.009581075897559077 0.02215656265616418 0.010685611429890225 -0.021749339997768402
 0.7695012184530989 -3.2504074573516832 -0.16437865793704975 0.1457840827271871 0.11634719947937247 -0.04660339280962941
 -0.8427350623781782 3.2274684906005873 0.11665815063549542 -0.04687343165278437 -0.18398325145244596 0.13496881576925449
118900000.0 -0.17778241634368888 -0.09081520275760041 -0.008472240137685267 0.022951150313019742 0.009810199318724096 -0.022168869152665135
 0.5690734428972267 -3.27916717529297 -0.1664052605628967 0.1480972458570885 0.11512915875986633 -0.047442156821489355
 -0.7127828251348582 3.249585628509523 0.11418344847596937 -0.04843198508024212 -0.17183442413806926 0.15704230552998855
123850000.0 -0.18928937613964075 -0.07736437429954736 -0.0066300062933169375 0.022988701239228228 0.007871902497765515 -0.023047031834721562
 0.427117442812835 -3.2701714038848864 -0.16306744515895832 0.1503997515114313 0.11323472196560061 -0.04983662441372872
 -0.5728209020482378 3.260499477386477 0.11299431823923921 -0.04866337776184081 -0.1698466092348099 0.15178930884689826
128800000.0 -0.1931071877479553 -0.05790934663799214 -0.005757040750562407 0.023595461621880517 0.007052145501742492 -0.02332074195146561
 0.1816767275110494 -3.3036997318267813 -0.15546572208404527 0.16118215879653022 0.11316881563006094 -0.04693445563316343
 -0.4095673259956971 3.2876691818237296 0.1138411133215935 -0.04591052234172819 -0.17028748989105216 0.14769833641227767
133750000.0 -0.19815844297409063 -0.036093335196886574 -0.004138945977279067 0.023864155635237718 0.005410784572850595 -0.023901721462607394
 -0.038230690346328464 -3.294513702392579 -0.1540710479021074 0.15448470750100932 0.11064487500328372 -0.051596645265817656
 -0.1614851052439499 3.3000540733337416 0.11148275953772595 -0.048865791410207755 -0.16044384241104112 0.15731876820934962
138700000.0 -0.18861676752567305 -0.029472909020414627 -0.00345019629770633 0.024142561480402943 0.004377208218584475 -0.023546045646071434
 -0.22904152228774322 -3.2879719734191886 -0.15082688629627222 0.16210231884991785 0.11125292985794162 -0.048353280872106545
 -0.0001911236105527467 3.2965695858001722 0.11152890612837686 -0.04738373681902888 -0.1599049717187881 0.1526446815490381
143650000.0 -0.19246171414852142 -0.012657069655246506 -0.0009457172204665339 0.02450187876820565 0.002728658129262403 -0.023476766422390938
 -0.444760494853729 -3.2518997192382804 -0.15072490274906156 0.1654955530940209 0.10884198505402516 -0.0503211095929146
 0.21335384925417208 3.2763504981994624 0.11043769249867363 -0.04775251820683481 -0.1504405885934829 0.16092354587000676
148600000.0 -0.18962512910366053 0.0013293859119888703 -0.00041891453572502304 0.024225933477282528 0.0019792896466536824 -0.024206964299082756
 -0.5930094483018488 -3.232054233551024 -0.13946324586868272 0.16700227369895726 0.11115782655605591 -0.04586826637387276
 0.4190307471039236 3.253293991088869 0.10882503212894717 -0.04844593629240989 -0.15130969882011405 0.16931331374389783
153550000.0 -0.17850922048091894 0.022087623699695566 0.0007881382944900446 0.024313312023878098 0.00034395470098363165 -0.024729913100600246
 -0.8125119760931151 -3.1746816635131827 -0.14577931165695185 0.1711912333181243 0.10927575370425928 -0.0480734258890152
 0.6410436262650974 3.2154004573822013 0.10883728784161749 -0.048583112657070195 -0.14546298980712896 0.16176242773662308
158500000.0 -0.1674205511808395 0.038716044377503166 0.002438624672712462 0.02438042312860489 -0.0007603086271838745 -0.024018134921789138
 -0.9881291079475256 -3.1065595149993883 -0.13060231506824488 0.18046836675641523 0.10766766379386492 -0.05090937018394467
 0.7955166508587427 3.17598795890808 0.10755860529716853 -0.0499145984649658 -0.14330480992794054 0.17059812407310537
163450000.0 -0.16534119844436632 0.05253012705488486 0.0031306315300871157 0.02383907511830331 -0.002283735972331801 -0.02419701591134069
 -1.0862977344993447 -3.0799946784973153 -0.13618847727775574 0.18244630732969064 0.1069941828170865 -0.049626823514699936
 1.01630714067708 3.104157209396361 0.10738926244923337 -0.050521887838840505 -0.14108718931674954 0.18236518422729164
168400000.0 -0.15554015338420865 0.07051723724662924 0.0051275590758884364 0.022950455546379093 -0.0038574000101378745 -0.023529855534434308
 -1.236496179826647 -3.0149328708648673 -0.13009352982044226 0.19358156711564511 0.10595195784119614 -0.051342222839593867
 1.0785176350357097 3.083416223526002 0.1086920080819896 -0.04730672016739843 -0.13124468922615048 0.18473866754924
173350000.0 -0.14657287299633018 0.08343730123208984 0.006141035110961271 0.023474819958209985 -0.004459731163199707 -0.023561138659715646
 -1.5485866433342004 -2.8485257625579816 -0.12949258089065552 0.1830235591728504 0.10784251646653081 -0.05074148997664453
 1.334051899229745 2.9650049209594735 0.10584172811005135 -0.05105956271290779 -0.1327542215585709 0.18762299057447906
178300000.0 -0.1385236680507659 0.08381061820561547 0.008301499283195945 0.022923093289136852 -0.006622892569601399 -0.02349429018795489
 -1.6250194692128304 -2.8092117309570312 -0.12623235583305364 0.18564228928912224 0.10751772957109695 -0.051754545420408256
 1.4934190901590054 2.880412101745604 0.1040011231106367 -0.054595425724983236 -0.13498690724372858 0.18939971068152173
183250000.0 -0.12993399798870076 0.09924848352084334 0.008363523515078174 0.022563619539141662 -0.007269567071356563 -0.02270231395959853
 -1.874501729156167 -2.6441223621368413 -0.12212637066841117 0.19394863483801256 0.10557542938276047 -0.05266347527503963
 1.6607795588816583 2.783247232437134 0.10615539714614194 -0.0513949990272522 -0.12263417243957521 0.2002757237797177
188200000.0 -0.10461080074310303 0.10648788098598673 0.009140406525458633 0.022106388583779342 -0.008644482931169012 -0.02266373671591281
 -1.9532831772885175 -2.588066101074216 -0.116955004632473 0.2037627129609941 0.10559296690543558 -0.05511715263128281
 1.8281521530456373 2.6789979934692383 0.10561255363277082 -0.05191474407911301 -0.12521885335445415 0.19578521296812212
193150000.0 -0.09319110214710237 0.11498891885227698 0.011785674898434436 0.020723860710859306 -0.010846663381583164 -0.02128184586763381
 -2.159675510043345 -2.4240632057189915 -0.12745529413223286 0.20099287054843457 0.10483951922498294 -0.05448168888688085
 1.9994025704607945 2.559379816055299 0.10555331947758848 -0.053909339010715485 -0.1280916929244995 0.19711405695124656
198100000.0 -0.07797250896692282 0.11090115009712205 0.012454103915191266 0.02063092403113844 -0.011263994501013638 -0.021163109689950936
 -2.321213045693152 -2.2497224807739276 -0.11586672812700267 0.20657532590203614 0.1042997611893431 -0.05582736432552336
 2.125184175423117 2.444582223892211 0.10497363221353666 -0.05542642250657082 -0.11518190801143648 0.20184287923645292
203050000.0 -0.06857784837484371 0.11269843114775702 0.014102503838911476 0.019423736259341226 -0.013446012324929727 -0.02020279876887797
 -2.4409388156421925 -2.149002552032468 -0.10467513650655749 0.21893689488149412 0.10502666691821554 -0.0567396208643913
 2.2639192457478168 2.32928228378296 0.10499906739345839 -0.055747505277395235 -0.1172658130526543 0.2094801828198297
208000000.0 -0.041960753500461634 0.1156649421250384 0.014838996449986161 0.01902900263667107 -0.012672581975631224 -0.020148005336523066
 -2.566922377817618 -1.9695680141448932 -0.10683853179216395 0.21220309760045253 0.10668682423592844 -0.05299129337072373
 2.4180516779679184 2.1505870819091784 0.10507299017200031 -0.05701645091176034 -0.12744610011577623 0.20991566371194154
212950000.0 -0.035431180149316864 0.12019642417978264 0.016252823182352872 0.017951857298612598 -0.015281746080631613 -0.01875883713364601
 -2.6562912329368418 -1.8436549901962298 -0.10220121592283228 0.2136369390671172 0.10508382468144241 -0.05724414065480232
 2.5265474459781836 2.0564858913421626 0.1073272723515853 -0.05499384552240369 -0.10238963365554801 0.20717802045553424
217900000.0 -0.009796511381864556 0.10282994196237663 0.016880959546523275 0.01688034646213056 -0.01587367995920548 -0.01775243133306504
 -2.812425570220371 -1.5632733106613175 -0.09490992873907089 0.21530460479090002 0.10484487283620374 -0.0587894730269909
 2.6691513114237275 1.8114298582077029 0.10481995903644095 -0.058331523090600954 -0.10500648617744454 0.2186644941367476
222850000.0 -0.006240030284970991 0.10057086191469024 0.01776735443737357 0.015781484544277198 -0.016389227519438197 -0.017383793368935578
 -2.8763571089419226 -1.4516990184783918 -0.1019092723727227 0.2241691437875528 0.10588591032526587 -0.05776714161038398
 2.791103645818128 1.628225803375244 0.10705640102236841 -0.05747304111719128 -0.10961299389600762 0.21739535796163784
227800000.0 2.9885763069614182e-05 0.09085570979406002 0.01869784657930951 0.015005351975560185 -0.017859199664986836 -0.01587541401386261
 -2.954019210683764 -1.2773281335830693 -0.0952432826161385 0.2244228871235244 0.10598816865645008 -0.058383516967296586
 2.828225304145579 1.5359849929809575 0.10569406759979386 -0.05913265049457552 -0.09825223684310906 0.21616531240146497
232750000.0 0.024100186303257935 0.08049534025611278 0.019724489451378495 0.014059257693588746 -0.01898016026748525 -0.014931339770555501
 -3.01794953256206 -1.0821425914764389 -0.09766866266727435 0.21476831143370842 0.10592172161354106 -0.0610322616994381
 2.92016522569675 1.3233481645584106 0.10668883862950347 -0.05785229802131655 -0.08752445876598351 0.23438388340892474
237700000.0 0.03550862520933151 0.0700066307763452 0.020621617136753333 0.012490910477936273 -0.019111151104459264 -0.014646468684077256
 -3.065939746856773 -0.9697155952453632 -0.08185659348964715 0.22979294865779012 0.10763977388106509 -0.059867963194847114
 2.9624278399426744 1.2440781593322747 0.10654289881303462 -0.0606936663389206 -0.09767658263444916 0.22984316638832772
242650000.0 0.05583797767758367 0.06424557366575037 0.02133087934871772 0.01100826822221278 -0.020661368290707097 -0.012690530158579362
 -3.0982685892372577 -0.7846342921257017 -0.08246245980262745 0.22611434199754954 0.10539923420039413 -0.06384125351905826
 3.048518268280382 1.0283863544464111 0.10764108674074295 -0.05989075452089308 -0.09511335194110865 0.23714592926101508
247600000.0 0.058635313063859974 0.04180856239637984 0.021691502252217436 0.010003781877458089 -0.020813876658181126 -0.012055361643433552
 -3.159073246617964 -0.49453857541084284 -0.06764133274555208 0.22571986971672808 0.10652768484321234 -0.06202048435807225
 3.107145348280228 0.7701368331909181 0.10676759303194962 -0.06310223788022998 -0.11166553199291214 0.2253937920257258
252550000.0 0.06342638283967969 0.03381939488713974 0.022089966783622315 0.007931469939649103 -0.021497433361155234 -0.010431008413434027
 -3.171660618733092 -0.2892390191555027 -0.07745552808046362 0.23761521180206369 0.10483733560458297 -0.06737040728330611
 3.140202062916774 0.6219727396965025 0.10755789588048784 -0.06406769901514052 -0.09480145573616011 0.23071799012095814
257500000.0 0.06888335943222045 0.016928801859383277 0.02269620831570264 0.007112514227628704 -0.022090606592608922 -0.008880501613020883
 -3.193152805612268 -0.11737433820962699 -0.0732338204979899 0.24308041099423475 0.1055605836882344 -0.0667732581496239
 3.183467618466734 0.32978722453117393 0.1063730049607398 -0.06742491573095319 -0.0925810635089874 0.2368891763437241
262450000.0 0.06880849599838255 -0.008133174310090092 0.0228487348713399 0.005288810469210149 -0.022799250704926447 -0.008115016855299475
 -3.168596365004128 0.16548176109790735 -0.061119779944419736 0.24943792160223358 0.10609373771956185 -0.06930329650640488
 3.1856419249054926 0.08317831158638006 0.10521461283329593 -0.06938213109970093 -0.07317704707384128 0.2543523197981934
