#  HZ   S   DB   R     50.0
! Rohde & Schwarz ZVL
!
!
!
 1.000000000000000E7    -1.646826953176428E1  -7.931243908694989E1  -9.914204669117714E-2   1.281245677023443  -6.376595092991118E-2   1.739870476153419  -1.683107059999099E1  -7.854792080185686E1
 1.495000000000000E7    -2.055074711951972E1  -8.028216461539607E1  -5.694281573835439E-2  -2.004380642552273  -4.974276024732087E-3  -2.171387135029221  -1.991422916182017E1  -8.273098048553351E1
 1.990000000000000E7    -2.388703340598888E1  -8.176326588835920E1  -6.530158498190332E-2  -1.028023672273885E1  -5.311803616165634E-2  -7.078048183728521  -2.468979762750863E1  -8.034542876365896E1
 2.485000000000000E7    -2.675009431391392E1  -9.133461022274616E1  -9.378585606586876E-2  -1.164869737461418E1  -6.796936220084388E-2  -1.094078055574156E1  -2.644111246889985E1  -8.203858309411477E1
 2.980000000000000E7    -3.064123416440579E1  -9.459165256642204E1  -1.159157161120528E-1  -1.407176291126511E1  -1.053991239954112E-1  -1.508092455792842E1  -2.933047296591052E1  -8.322100473904750E1
 3.475000000000000E7    -3.288860219879906E1  -8.260609336446947E1  -1.497595605984615E-1  -1.768620272359853E1  -1.322062672726249E-1  -1.677526367872257E1  -3.324650407215576E1  -8.836754612785451E1
 3.970000000000000E7    -3.870297737089612E1  -5.826663939901471E1  -1.624986603176401E-1  -2.329430022949773E1  -1.759391010060877E-1  -2.016166576677525E1  -3.477257441503969E1  -6.420708662225270E1
 4.465000000000000E7    -3.814621405827516E1  -5.181440443768077E1  -1.719276758176729E-1  -2.541833234709510E1  -1.675933783358038E-1  -2.499445672865547E1  -3.754258999053019E1  -4.035555745224274E1
 4.960000000000000E7    -4.093812479452070E1  -2.650071421002732E1  -1.657677564020613E-1  -2.629460895881762E1  -1.569046448478544E-1  -2.750637862421142E1  -4.016184455566744E1  -7.773229415015883E-1
 5.455000000000000E7    -3.788803999921474E1   3.578707211835550E1  -1.725840058834219E-1  -3.121681859494019E1  -1.710817745961507E-1  -3.048724414506040E1  -3.593152817726502E1   1.191457173219123E1
 5.950000000000000E7    -3.761700072179026E1   2.251593236877073E1  -1.715214972055558E-1  -3.318115718458118E1  -1.611892781074433E-1  -3.300785775256292E1  -3.670018469726089E1   2.598395739090164E1
 6.445000000000000E7    -3.534072615186662E1   1.648853438670023E1  -1.651046492455967E-1  -3.431423492152674E1  -1.499570775387326E-1  -3.643913440930907E1  -3.356240970633874E1   3.220200752233157E1
 6.940000000000000E7    -3.454037121546018E1   2.116272873939318E1  -1.651712684425374E-1  -3.906763027918102E1  -1.327200182967227E-1  -3.916550930943931E1  -3.322663135738835E1   2.234920864935187E1
 7.435000000000000E7    -3.208212369031693E1   1.901797753457177E1  -1.594271794352402E-1  -4.044671394759887E1  -1.321708581857451E-1  -4.514764388007542E1  -2.927700692493824E1   1.921790543497881E1
 7.930000000000000E7    -3.064876010346523E1   2.863565870349596E1  -1.629339602601801E-1  -4.760761179358003E1  -1.588436918743101E-1  -4.398197039163317E1  -3.112321318649191E1   3.032677518597622E1
 8.425000000000000E7    -2.993928034809240E1   1.803430455846099E1  -1.603203291855990E-1  -4.784730139978832E1  -1.715892343656448E-1  -4.874998637583213E1  -2.901032783331936E1   1.033008584462765E1
 8.920000000000000E7    -2.805208277080716E1   1.665213244379147E1  -1.832217182662215E-1  -5.095677358375157E1  -1.778057705552177E-1  -5.303029684055694E1  -2.856602289285455E1   1.139288636276655E1
 9.415000000000000E7    -2.684526778378654E1   2.401930102429006E1  -1.556112858374090E-1  -5.557429211091955E1  -1.668920176226077E-1  -5.590580227834461E1  -2.776879361210541E1   1.238426917969739E1
 9.910000000000000E7    -2.657693884053775E1   1.221347344854908E1  -1.730931124965587E-1  -5.747178650694765E1  -1.685607390839527E-1  -5.853294857155190E1  -2.714299319990932E1   6.569385672982787
 1.040500000000000E8    -2.632208710033733E1   8.664471414505330  -1.782983784485338E-1  -6.035744585526729E1  -1.692621150146868E-1  -6.057115058269324E1  -2.622581827943594E1   5.503048861847411
 1.090000000000000E8    -2.590408914656289E1   1.114679445352513E1  -1.767373068432110E-1  -6.268035916279435E1  -1.941350208242337E-1  -6.392833348543454E1  -2.775289989573725E1   7.290758594495362E-1
 1.139500000000000E8    -2.556532938761610E1   1.060983383861153E1  -1.681492094882684E-1  -6.695264081002975E1  -1.952993239341536E-1  -6.689908809993202E1  -2.563049096493641E1  -8.621374340678932E-1
 1.189000000000000E8    -2.477205991207000E1   7.170557104729951  -1.859092163958468E-1  -6.997202782981213E1  -1.881583770722763E-1  -6.789425652537288E1  -2.556339509525636E1  -3.018110355248288
 1.238500000000000E8    -2.448826806734034E1  -3.971007294222471  -1.789263457307609E-1  -7.288519574003965E1  -2.033059380425425E-1  -7.140636752611124E1  -2.466492605492046E1  -2.796005932473354
 1.288000000000000E8    -2.400932335099893E1   4.968274620093562  -1.769583644574120E-1  -7.415911336947484E1  -1.957651966442184E-1  -7.455096159417860E1  -2.486977198679895E1  -9.089432508190539
 1.337500000000000E8    -2.430642149497638E1  -6.289062354636927  -1.877699878474912E-1  -7.870405002533212E1  -1.967803495869888E-1  -7.889858575551517E1  -2.518424787183810E1  -1.871300170618485E1
 1.387000000000000E8    -2.375658672930406E1  -4.685843853813861  -1.916281238983823E-1  -8.093581981062309E1  -2.061323065932956E-1  -7.955006184459100E1  -2.370464464163120E1  -5.660424887821551
 1.436500000000000E8    -2.364657485075725E1   2.333799345814993  -2.010676504921213E-1  -8.339648834987770E1  -1.939463331962366E-1  -8.550061555272997E1  -2.363610072134362E1  -1.723573550455345E1
 1.486000000000000E8    -2.341790004545019E1  -5.586268134520302  -2.067948973148942E-1  -8.584510800912901E1  -1.790984815782184E-1  -8.503720619958324E1  -2.389491112113864E1  -9.812426139451942
 1.535500000000000E8    -2.373913644404033E1  -4.484230388068030  -2.105949973914230E-1  -8.908540921985991E1  -1.801875755980307E-1  -8.804447455590425E1  -2.293811861961619E1  -1.481447060163126E1
 1.585000000000000E8    -2.310565485667000E1  -7.743618949478271  -2.210790386139472E-1  -9.300715584766054E1  -1.683878464665468E-1  -9.354179060509111E1  -2.364265143228729E1  -2.030655026733785E1
 1.634500000000000E8    -2.371508955040698E1  -1.068519553201643E1  -2.134343738020520E-1  -9.705480530752273E1  -1.940146769395463E-1  -9.588778200810712E1  -2.346136608971792E1  -2.597985725833700E1
 1.684000000000000E8    -2.322465411024979E1  -8.540719229492462  -2.274621948718358E-1  -9.634492342003470E1  -2.104006813612080E-1  -9.678520412240465E1  -2.281107539649972E1  -1.449441389612935E1
 1.733500000000000E8    -2.274197083898119E1  -1.633321433028793E1  -2.339419679258585E-1  -1.007553700919705E2  -1.695968632871175E-1  -1.007760440113459E2  -2.286409092169496E1  -2.156309285130900E1
 1.783000000000000E8    -2.348218806602781E1  -1.762889655091732E1  -2.257411611781303E-1  -1.036235958522437E2  -1.637874481089704E-1  -1.051341678115995E2  -2.275365356450252E1  -2.488524435268757E1
 1.832500000000000E8    -2.307471651182694E1  -1.687779853061914E1  -2.424941752430358E-1  -1.057867962771562E2  -2.323673442284329E-1  -1.060847019668788E2  -2.257054335748953E1  -2.336998288907511E1
 1.882000000000000E8    -2.302510690828784E1  -1.910079712421084E1  -2.336292342360608E-1  -1.084908821783196E2  -2.188176760924274E-1  -1.103228068830209E2  -2.261081040837363E1  -3.177031798502597E1
 1.931500000000000E8    -2.262715616247827E1  -2.272757297969759E1  -2.443801299735724E-1  -1.134977547769376E2  -2.523947052041977E-1  -1.142507640108998E2  -2.212586802812195E1  -3.402311196909991E1
 1.981000000000000E8    -2.256211920626884E1  -2.711840938696653E1  -2.493871946345935E-1  -1.162046554390729E2  -2.683558300781125E-1  -1.163453378712595E2  -2.236660416259078E1  -3.708118997896650E1
 2.030500000000000E8    -2.231988857095192E1  -2.842682121866933E1  -2.823155230862083E-1  -1.183185683416643E2  -2.903509178640432E-1  -1.202781767783935E2  -2.191562232456547E1  -3.833846525272119E1
 2.080000000000000E8    -2.277647369764879E1  -3.681064101826011E1  -2.637026317704614E-1  -1.225436683057854E2  -3.030866135793715E-1  -1.210868694565165E2  -2.205101743341627E1  -4.068428825495729E1
 2.129500000000000E8    -2.282384816650237E1  -3.694454243215959E1  -2.674510616699110E-1  -1.239247424709663E2  -3.137469029987374E-1  -1.236231256676118E2  -2.229232062107364E1  -4.153268370974612E1
 2.179000000000000E8    -2.208557958784682E1  -3.985378956266697E1  -2.795832289664271E-1  -1.274688074749451E2  -3.226423291702509E-1  -1.278849540485494E2  -2.209710643364503E1  -4.666790996610106E1
 2.228500000000000E8    -2.176634510602606E1  -4.609984900532682E1  -2.932424709879485E-1  -1.300001699343776E2  -3.182072231254474E-1  -1.305295077343251E2  -2.232043915675068E1  -4.763547081509376E1
 2.278000000000000E8    -2.226851501452223E1  -5.198530088708757E1  -2.965863624555757E-1  -1.341810223145002E2  -3.297197786659175E-1  -1.313159742552866E2  -2.162909329479460E1  -5.156981316243462E1
 2.327500000000000E8    -2.174091800205755E1  -5.212963474120772E1  -3.097905627590075E-1  -1.356037675823212E2  -3.465659417726238E-1  -1.367019778808302E2  -2.196654987419776E1  -5.467426379671291E1
 2.377000000000000E8    -2.146492763189451E1  -5.529184502403509E1  -3.095835505598360E-1  -1.384780103447280E2  -3.716101690838793E-1  -1.388984720444033E2  -2.242230485644586E1  -5.787547339399795E1
 2.426500000000000E8    -2.138980531609411E1  -6.109434927230400E1  -3.202375604038111E-1  -1.392795611393168E2  -3.259768870499530E-1  -1.419100225157073E2  -2.352762214396324E1  -6.204079335435051E1
 2.476000000000000E8    -2.123415094051340E1  -6.465834036585466E1  -3.142291372528866E-1  -1.445031236300795E2  -3.291873522353080E-1  -1.441731781653745E2  -2.258510073364737E1  -6.324236711045024E1
 2.525500000000000E8    -2.180695093116773E1  -6.493001123242084E1  -3.457614215557633E-1  -1.485588342652127E2  -3.141973953383225E-1  -1.478884411660820E2  -2.259458302781259E1  -6.735798740388452E1
 2.575000000000000E8    -2.144599473036892E1  -6.749010762752627E1  -3.251530949444532E-1  -1.491816643856993E2  -3.223785238482279E-1  -1.506837765496814E2  -2.268712107825080E1  -7.063615600360556E1
 2.624500000000000E8    -2.144541292369503E1  -6.856078129111712E1  -3.350353698509097E-1  -1.528402488099738E2  -3.222229666591331E-1  -1.529439032478460E2  -2.201580813815235E1  -7.349174968065496E1
 2.674000000000000E8    -2.166564729078853E1  -7.046592203383881E1  -3.547485233718002E-1  -1.548902147043228E2  -3.218757249839805E-1  -1.574226465548107E2  -2.178030131969312E1  -7.441467860589000E1
 2.723500000000000E8    -2.178569807318728E1  -7.313615507542826E1  -3.447953873739422E-1  -1.581876270722151E2  -3.310926882577553E-1  -1.592697422118132E2  -2.168924196709735E1  -7.203509115980138E1
 2.773000000000000E8    -2.167749876184214E1  -7.653397912569184E1  -3.558706127759763E-1  -1.610569488635731E2  -3.157549080195062E-1  -1.623819217405224E2  -2.166363733899503E1  -7.612908044781757E1
 2.822500000000000E8    -2.198141534854024E1  -8.028775589473908E1  -3.515876644783568E-1  -1.658040441610734E2  -3.255388988623739E-1  -1.633625699439002E2  -2.197208455259037E1  -7.728588169622564E1
 2.872000000000000E8    -2.195751127747367E1  -8.431751658038986E1  -3.435026156030379E-1  -1.677646850983726E2  -3.314703813848965E-1  -1.677175579494314E2  -2.152904854918666E1  -7.738122119940246E1
 2.921500000000000E8    -2.192803778931686E1  -8.410101376310547E1  -3.659641032236964E-1  -1.705545083131378E2  -3.550200910031297E-1  -1.690457926729980E2  -2.134801635899522E1  -7.922101797918045E1
 2.971000000000000E8    -2.229627048970654E1  -8.611729070133400E1  -3.423773219143325E-1  -1.726247471927321E2  -3.737057660160503E-1  -1.729383739115364E2  -2.108588917125136E1  -7.987210948470714E1
 3.020500000000000E8    -2.219742493806322E1  -9.094425690288874E1  -3.628339000889952E-1  -1.759191691059544E2  -3.972507301719072E-1  -1.764146616904943E2  -2.100390825018852E1  -8.449702219746673E1
 3.070000000000000E8    -2.221703799665598E1  -9.511050976832385E1  -3.656002831609119E-1  -1.778748132067216E2  -3.785910805975932E-1  -1.796764521773336E2  -2.096819405165558E1  -8.882782474611618E1
 3.119500000000000E8    -2.168407535222943E1  -9.923177588802656E1  -3.673494981227004E-1   1.786385897873525E2  -3.864907571251653E-1   1.779905450656778E2  -2.068505559151572E1  -8.917855723737416E1
 3.169000000000000E8    -2.168080422770215E1  -1.010918479070863E2  -3.803474142986976E-1   1.743543805234296E2  -3.854435283313289E-1   1.743667729491455E2  -2.062454726178458E1  -9.323688604926294E1
 3.218500000000000E8    -2.127034680237031E1  -1.038276311773496E2  -3.825088101072375E-1   1.725040829316760E2  -3.976286578422101E-1   1.710044897837180E2  -2.082732861699496E1  -9.736235977448821E1
 3.268000000000000E8    -2.170097287745834E1  -1.059083699252746E2  -3.869016431635340E-1   1.708269549544507E2  -3.818054060348579E-1   1.702899627127211E2  -2.081620428794550E1  -1.026704376329287E2
 3.317500000000000E8    -2.104172230156903E1  -1.114156646088879E2  -3.879580404986713E-1   1.683374264470790E2  -3.922541626214466E-1   1.678085521108721E2  -2.085159088270751E1  -1.026592793915139E2
 3.367000000000000E8    -2.097751517182409E1  -1.130772235213233E2  -4.205164443780045E-1   1.646884436734293E2  -3.823731996578575E-1   1.637300889606335E2  -2.047482326872815E1  -1.029051133451820E2
 3.416500000000000E8    -2.064143093433572E1  -1.176791703120589E2  -4.085591574714515E-1   1.600879262289207E2  -3.824712113009571E-1   1.603382463744971E2  -2.056805387959760E1  -1.113376054666754E2
 3.466000000000000E8    -2.042831058138306E1  -1.185265207635631E2  -4.209694085550301E-1   1.582942707495474E2  -3.895676984534658E-1   1.594141682052413E2  -2.079005739871257E1  -1.110006435928913E2
 3.515500000000000E8    -2.035437007025817E1  -1.221871905896883E2  -4.053519857345637E-1   1.551738006203328E2  -3.876758839057102E-1   1.559224180070001E2  -2.113234683461545E1  -1.166526671531860E2
 3.565000000000000E8    -2.007084330340808E1  -1.236076975807789E2  -4.252554590333127E-1   1.510051321169860E2  -3.973684324666435E-1   1.512450617325055E2  -2.041114937524604E1  -1.218408970721521E2
 3.614500000000000E8    -2.023209716948353E1  -1.270223257056954E2  -4.251483714527725E-1   1.501299681843633E2  -3.897969858390243E-1   1.482490149554994E2  -2.057529714688355E1  -1.202515146477097E2
 3.664000000000000E8    -2.011769918882277E1  -1.315321850128163E2  -4.300612999739618E-1   1.469425241120306E2  -4.211737074280422E-1   1.472034558865411E2  -2.074773147094933E1  -1.228053830585754E2
 3.713500000000000E8    -1.973947019797143E1  -1.319412390848216E2  -4.405665138598126E-1   1.439133447816824E2  -4.508208600378316E-1   1.450126317251390E2  -2.086485650893918E1  -1.279067312645781E2
 3.763000000000000E8    -2.020563467286303E1  -1.392042150912061E2  -4.299090636146543E-1   1.403978252378085E2  -4.434755842387815E-1   1.405241939655093E2  -2.091529760509303E1  -1.283422144464487E2
 3.812500000000000E8    -1.985840512351344E1  -1.403059267327949E2  -4.191898665569718E-1   1.390163668930157E2  -4.438223563435859E-1   1.376095119041107E2  -2.034240893794125E1  -1.324362556790501E2
 3.862000000000000E8    -2.018045156820666E1  -1.406772540281718E2  -4.237937572083368E-1   1.359086635489606E2  -4.794650693232209E-1   1.355166683761643E2  -2.011264512160049E1  -1.326949734854749E2
 3.911500000000000E8    -1.979004865640166E1  -1.491243139774637E2  -4.254552981848981E-1   1.327442843400801E2  -5.098093823348457E-1   1.307802238532609E2  -1.964844438027692E1  -1.364897299935865E2
 3.961000000000000E8    -1.985518637295420E1  -1.493497184894879E2  -4.111880580893488E-1   1.298082616862624E2  -5.680438327008036E-1   1.290601492795821E2  -2.021937817883463E1  -1.389513349319321E2
 4.010500000000000E8    -2.015717361770617E1  -1.515176491681466E2  -4.288701992991258E-1   1.281929510199616E2  -6.020491626823225E-1   1.287967043172319E2  -1.945165866566226E1  -1.403955544972846E2
 4.060000000000000E8    -1.991877907196460E1  -1.547109840654908E2  -4.337846868070258E-1   1.249212518073822E2  -5.547088507630574E-1   1.239662913392899E2  -1.879582281548271E1  -1.446142042207554E2
 4.109500000000000E8    -1.991012419107182E1  -1.614043678838160E2  -4.389546730795917E-1   1.205482429699435E2  -6.017546496177662E-1   1.220538661399281E2  -1.929230293492766E1  -1.451228348448548E2
 4.159000000000000E8    -1.964515699869818E1  -1.612153953977940E2  -4.533827453571109E-1   1.182628486872862E2  -6.002315454077991E-1   1.189360129688483E2  -1.867859795120879E1  -1.487794886524889E2
 4.208500000000000E8    -2.010119017198202E1  -1.654351530687823E2  -4.541120038676955E-1   1.153330043357340E2  -5.749166015801537E-1   1.152381765420144E2  -1.865324354604084E1  -1.518476827831330E2
 4.258000000000000E8    -1.954903629596231E1  -1.698128872279596E2  -4.575078988003166E-1   1.122724371907165E2  -5.470394126758418E-1   1.127243432918606E2  -1.863339013927383E1  -1.566063890858146E2
 4.307500000000000E8    -1.919731224727144E1  -1.712054440469402E2  -4.854411745271138E-1   1.102948451171814E2  -5.317455749502464E-1   1.105384598058243E2  -1.838309451135446E1  -1.566344962925306E2
 4.357000000000000E8    -1.932374669637831E1  -1.781858402237031E2  -4.882278787906913E-1   1.060622180547846E2  -5.032753883840365E-1   1.075794345845209E2  -1.814682171326426E1  -1.566314246881528E2
 4.406500000000000E8    -1.915641739982173E1  -1.769766613696379E2  -4.956481205246295E-1   1.033695072726827E2  -4.435251030953354E-1   1.049391435062749E2  -1.826893426763208E1  -1.591232434834325E2
 4.456000000000000E8    -1.896366905238970E1   1.780508547218244E2  -5.161570730316276E-1   1.020411479158360E2  -3.988769182517377E-1   1.024849649523874E2  -1.854557531633090E1  -1.678689949013113E2
 4.505500000000000E8    -1.871657587054567E1   1.750135727290851E2  -5.078186376378864E-1   9.966250380197623E1  -3.700771538813541E-1   9.940022586905637E1  -1.831965767235494E1  -1.668066586832970E2
 4.555000000000000E8    -1.778870170638273E1   1.735062791592346E2  -5.320553800292607E-1   9.701477764117037E1  -3.315003238114182E-1   9.626327954340698E1  -1.805797706551844E1  -1.737067119423406E2
 4.604500000000000E8    -1.776546386738004E1   1.670679784965435E2  -5.427502891786690E-1   9.203669406187886E1  -3.546879299810685E-1   9.147912875278961E1  -1.777659969231979E1  -1.779997998658676E2
 4.654000000000000E8    -1.812727386098765E1   1.632543202135984E2  -5.277830279239890E-1   8.919330051314276E1  -3.627075947685526E-1   8.925045549061582E1  -1.782482552594868E1   1.781500346214062E2
 4.703500000000000E8    -1.799321599084055E1   1.611053340255373E2  -5.238050870204638E-1   8.527930912769503E1  -3.242590378212974E-1   8.579312833505726E1  -1.742178889992698E1   1.796092723474464E2
 4.753000000000000E8    -1.759458910122128E1   1.600709834241319E2  -5.314773837783002E-1   8.273345083355729E1  -3.342414824887020E-1   8.511567953164585E1  -1.836081766253235E1   1.772450796704040E2
 4.802500000000000E8    -1.695621569168186E1   1.564477721003052E2  -5.160359057004920E-1   8.100112161761678E1  -3.730322557344298E-1   7.954760063475207E1  -1.748432955697798E1   1.743640883724231E2
 4.852000000000000E8    -1.730833162056273E1   1.526895172048381E2  -5.032752969719790E-1   7.833272023845632E1  -4.331295888522316E-1   7.838089491352794E1  -1.738616846828071E1   1.717157531474149E2
 4.901500000000000E8    -1.695995758934516E1   1.490747524653200E2  -4.626621402384989E-1   7.553235169740651E1  -4.806985727411018E-1   7.541685535034233E1  -1.707023381029537E1   1.686919482436430E2
